!Agilent Technologies,N5230A,MY46400454,A.06.04.21
!Agilent N5230A: A.06.04.21
!Date: Sunday, October 28, 2018 12:13:59
!Correction: S11(Full 1 Port(1)) 
!S1P File: Measurement: S11:
# Hz S  dB   R 50
2290883600  -1.408494e+000  2.349633e+001 
2291054094.375  -1.414909e+000  2.344353e+001 
2291224588.75  -1.418095e+000  2.336133e+001 
2291395083.125  -1.424977e+000  2.331212e+001 
2291565577.5  -1.432520e+000  2.323911e+001 
2291736071.875  -1.429474e+000  2.317934e+001 
2291906566.25  -1.437216e+000  2.309282e+001 
2292077060.625  -1.440103e+000  2.302342e+001 
2292247555  -1.438215e+000  2.297633e+001 
2292418049.375  -1.445536e+000  2.292261e+001 
2292588543.75  -1.455563e+000  2.286269e+001 
2292759038.125  -1.447408e+000  2.279566e+001 
2292929532.5  -1.452597e+000  2.273809e+001 
2293100026.875  -1.460216e+000  2.266437e+001 
2293270521.25  -1.468646e+000  2.259962e+001 
2293441015.625  -1.468419e+000  2.254729e+001 
2293611510  -1.471184e+000  2.245465e+001 
2293782004.375  -1.480551e+000  2.242387e+001 
2293952498.75  -1.477884e+000  2.234344e+001 
2294122993.125  -1.483763e+000  2.231796e+001 
2294293487.5  -1.492140e+000  2.220539e+001 
2294463981.875  -1.491836e+000  2.218005e+001 
2294634476.25  -1.496483e+000  2.208994e+001 
2294804970.625  -1.502735e+000  2.200133e+001 
2294975465  -1.500292e+000  2.199875e+001 
2295145959.375  -1.510615e+000  2.192825e+001 
2295316453.75  -1.513615e+000  2.188873e+001 
2295486948.125  -1.516580e+000  2.179019e+001 
2295657442.5  -1.518762e+000  2.168273e+001 
2295827936.875  -1.527014e+000  2.167952e+001 
2295998431.25  -1.523292e+000  2.160551e+001 
2296168925.625  -1.531207e+000  2.152407e+001 
2296339420  -1.534978e+000  2.147093e+001 
2296509914.375  -1.538023e+000  2.136710e+001 
2296680408.75  -1.538707e+000  2.131602e+001 
2296850903.125  -1.545502e+000  2.128098e+001 
2297021397.5  -1.550848e+000  2.123167e+001 
2297191891.875  -1.553366e+000  2.115579e+001 
2297362386.25  -1.559352e+000  2.104905e+001 
2297532880.625  -1.562335e+000  2.102339e+001 
2297703375  -1.564921e+000  2.093118e+001 
2297873869.375  -1.570239e+000  2.087395e+001 
2298044363.75  -1.573621e+000  2.080861e+001 
2298214858.125  -1.577799e+000  2.071716e+001 
2298385352.5  -1.578136e+000  2.068359e+001 
2298555846.875  -1.579416e+000  2.063303e+001 
2298726341.25  -1.587533e+000  2.057502e+001 
2298896835.625  -1.595502e+000  2.044565e+001 
2299067330  -1.594034e+000  2.040490e+001 
2299237824.375  -1.604018e+000  2.033102e+001 
2299408318.75  -1.604017e+000  2.029175e+001 
2299578813.125  -1.610528e+000  2.019583e+001 
2299749307.5  -1.610181e+000  2.018433e+001 
2299919801.875  -1.614841e+000  2.011021e+001 
2300090296.25  -1.619023e+000  2.002568e+001 
2300260790.625  -1.622826e+000  1.994341e+001 
2300431285  -1.625583e+000  1.989344e+001 
2300601779.375  -1.623862e+000  1.979388e+001 
2300772273.75  -1.631054e+000  1.977391e+001 
2300942768.125  -1.641341e+000  1.966575e+001 
2301113262.5  -1.641334e+000  1.959485e+001 
2301283756.875  -1.645843e+000  1.950091e+001 
2301454251.25  -1.652059e+000  1.947319e+001 
2301624745.625  -1.655737e+000  1.940070e+001 
2301795240  -1.653351e+000  1.932349e+001 
2301965734.375  -1.664097e+000  1.926015e+001 
2302136228.75  -1.667758e+000  1.921071e+001 
2302306723.125  -1.668392e+000  1.912628e+001 
2302477217.5  -1.675659e+000  1.908211e+001 
2302647711.875  -1.678034e+000  1.901120e+001 
2302818206.25  -1.684968e+000  1.892203e+001 
2302988700.625  -1.685195e+000  1.884405e+001 
2303159195  -1.697062e+000  1.879378e+001 
2303329689.375  -1.697939e+000  1.874864e+001 
2303500183.75  -1.695896e+000  1.867662e+001 
2303670678.125  -1.699062e+000  1.858211e+001 
2303841172.5  -1.706157e+000  1.852585e+001 
2304011666.875  -1.710495e+000  1.843656e+001 
2304182161.25  -1.714088e+000  1.840248e+001 
2304352655.625  -1.721116e+000  1.833186e+001 
2304523150  -1.724955e+000  1.825772e+001 
2304693644.375  -1.728974e+000  1.815647e+001 
2304864138.75  -1.734108e+000  1.809913e+001 
2305034633.125  -1.738997e+000  1.799218e+001 
2305205127.5  -1.740716e+000  1.797589e+001 
2305375621.875  -1.745510e+000  1.788902e+001 
2305546116.25  -1.749264e+000  1.781130e+001 
2305716610.625  -1.755321e+000  1.775174e+001 
2305887105  -1.760172e+000  1.768649e+001 
2306057599.375  -1.770460e+000  1.761410e+001 
2306228093.75  -1.769449e+000  1.751225e+001 
2306398588.125  -1.775288e+000  1.745342e+001 
2306569082.5  -1.781232e+000  1.738148e+001 
2306739576.875  -1.785048e+000  1.730349e+001 
2306910071.25  -1.788587e+000  1.723159e+001 
2307080565.625  -1.795771e+000  1.716744e+001 
2307251060  -1.798393e+000  1.707484e+001 
2307421554.375  -1.802435e+000  1.699629e+001 
2307592048.75  -1.808002e+000  1.693108e+001 
2307762543.125  -1.816767e+000  1.681703e+001 
2307933037.5  -1.819343e+000  1.679405e+001 
2308103531.875  -1.829837e+000  1.668241e+001 
2308274026.25  -1.831939e+000  1.662339e+001 
2308444520.625  -1.835257e+000  1.650365e+001 
2308615015  -1.847036e+000  1.644453e+001 
2308785509.375  -1.853998e+000  1.636764e+001 
2308956003.75  -1.855086e+000  1.626501e+001 
2309126498.125  -1.870500e+000  1.621954e+001 
2309296992.5  -1.872533e+000  1.613245e+001 
2309467486.875  -1.881898e+000  1.607978e+001 
2309637981.25  -1.893604e+000  1.597940e+001 
2309808475.625  -1.902716e+000  1.591102e+001 
2309978970  -1.907756e+000  1.580482e+001 
2310149464.375  -1.914842e+000  1.574280e+001 
2310319958.75  -1.925701e+000  1.569769e+001 
2310490453.125  -1.933994e+000  1.564379e+001 
2310660947.5  -1.942331e+000  1.555984e+001 
2310831441.875  -1.954821e+000  1.546234e+001 
2311001936.25  -1.961029e+000  1.543118e+001 
2311172430.625  -1.959838e+000  1.536170e+001 
2311342925  -1.981448e+000  1.531492e+001 
2311513419.375  -1.981218e+000  1.525195e+001 
2311683913.75  -1.995845e+000  1.517118e+001 
2311854408.125  -1.999996e+000  1.510651e+001 
2312024902.5  -2.003824e+000  1.505464e+001 
2312195396.875  -2.014543e+000  1.500140e+001 
2312365891.25  -2.023244e+000  1.490816e+001 
2312536385.625  -2.030668e+000  1.486263e+001 
2312706880  -2.037612e+000  1.479050e+001 
2312877374.375  -2.047604e+000  1.473117e+001 
2313047868.75  -2.053688e+000  1.467172e+001 
2313218363.125  -2.065783e+000  1.464487e+001 
2313388857.5  -2.066975e+000  1.457016e+001 
2313559351.875  -2.076988e+000  1.449459e+001 
2313729846.25  -2.086337e+000  1.442661e+001 
2313900340.625  -2.091578e+000  1.440171e+001 
2314070835  -2.096717e+000  1.435635e+001 
2314241329.375  -2.111369e+000  1.427939e+001 
2314411823.75  -2.115443e+000  1.425788e+001 
2314582318.125  -2.123563e+000  1.416772e+001 
2314752812.5  -2.133351e+000  1.411218e+001 
2314923306.875  -2.141931e+000  1.410107e+001 
2315093801.25  -2.146061e+000  1.402075e+001 
2315264295.625  -2.155174e+000  1.399611e+001 
2315434790  -2.163982e+000  1.392100e+001 
2315605284.375  -2.175127e+000  1.385139e+001 
2315775778.75  -2.180399e+000  1.383364e+001 
2315946273.125  -2.187316e+000  1.379557e+001 
2316116767.5  -2.200945e+000  1.368216e+001 
2316287261.875  -2.207585e+000  1.367277e+001 
2316457756.25  -2.211363e+000  1.357333e+001 
2316628250.625  -2.223683e+000  1.352877e+001 
2316798745  -2.229940e+000  1.347787e+001 
2316969239.375  -2.232749e+000  1.342114e+001 
2317139733.75  -2.241694e+000  1.335480e+001 
2317310228.125  -2.247671e+000  1.335404e+001 
2317480722.5  -2.253837e+000  1.326488e+001 
2317651216.875  -2.263831e+000  1.322168e+001 
2317821711.25  -2.273025e+000  1.318055e+001 
2317992205.625  -2.279746e+000  1.311067e+001 
2318162700  -2.283143e+000  1.309791e+001 
2318333194.375  -2.287050e+000  1.298392e+001 
2318503688.75  -2.296312e+000  1.297661e+001 
2318674183.125  -2.301106e+000  1.291925e+001 
2318844677.5  -2.311846e+000  1.285904e+001 
2319015171.875  -2.318517e+000  1.282728e+001 
2319185666.25  -2.320423e+000  1.274009e+001 
2319356160.625  -2.332936e+000  1.272315e+001 
2319526655  -2.332393e+000  1.267008e+001 
2319697149.375  -2.341393e+000  1.257775e+001 
2319867643.75  -2.352341e+000  1.253890e+001 
2320038138.125  -2.359990e+000  1.247588e+001 
2320208632.5  -2.361130e+000  1.238324e+001 
2320379126.875  -2.369010e+000  1.238058e+001 
2320549621.25  -2.380020e+000  1.230001e+001 
2320720115.625  -2.384618e+000  1.227196e+001 
2320890610  -2.392446e+000  1.221450e+001 
2321061104.375  -2.404739e+000  1.217629e+001 
2321231598.75  -2.409379e+000  1.210771e+001 
2321402093.125  -2.417700e+000  1.207313e+001 
2321572587.5  -2.421141e+000  1.202008e+001 
2321743081.875  -2.430468e+000  1.192176e+001 
2321913576.25  -2.434925e+000  1.194061e+001 
2322084070.625  -2.445217e+000  1.182038e+001 
2322254565  -2.448452e+000  1.182652e+001 
2322425059.375  -2.458687e+000  1.170938e+001 
2322595553.75  -2.460082e+000  1.169897e+001 
2322766048.125  -2.471780e+000  1.164389e+001 
2322936542.5  -2.478432e+000  1.161347e+001 
2323107036.875  -2.490850e+000  1.156779e+001 
2323277531.25  -2.492195e+000  1.152516e+001 
2323448025.625  -2.501230e+000  1.149988e+001 
2323618520  -2.507692e+000  1.143683e+001 
2323789014.375  -2.512887e+000  1.135091e+001 
2323959508.75  -2.518748e+000  1.135699e+001 
2324130003.125  -2.529631e+000  1.125643e+001 
2324300497.5  -2.536580e+000  1.125465e+001 
2324470991.875  -2.540312e+000  1.116751e+001 
2324641486.25  -2.551526e+000  1.113500e+001 
2324811980.625  -2.555707e+000  1.108949e+001 
2324982475  -2.563004e+000  1.103528e+001 
2325152969.375  -2.565771e+000  1.099425e+001 
2325323463.75  -2.571688e+000  1.092023e+001 
2325493958.125  -2.585548e+000  1.089367e+001 
2325664452.5  -2.587763e+000  1.084154e+001 
2325834946.875  -2.596975e+000  1.078377e+001 
2326005441.25  -2.601746e+000  1.069708e+001 
2326175935.625  -2.611975e+000  1.071320e+001 
2326346430  -2.616091e+000  1.059605e+001 
2326516924.375  -2.619069e+000  1.055658e+001 
2326687418.75  -2.629798e+000  1.055042e+001 
2326857913.125  -2.630240e+000  1.049358e+001 
2327028407.5  -2.637366e+000  1.047660e+001 
2327198901.875  -2.651294e+000  1.037880e+001 
2327369396.25  -2.655499e+000  1.034555e+001 
2327539890.625  -2.658447e+000  1.028308e+001 
2327710385  -2.663147e+000  1.020758e+001 
2327880879.375  -2.666275e+000  1.017700e+001 
2328051373.75  -2.674818e+000  1.008359e+001 
2328221868.125  -2.684664e+000  1.009217e+001 
2328392362.5  -2.686832e+000  1.003264e+001 
2328562856.875  -2.687747e+000  9.934727e+000 
2328733351.25  -2.697008e+000  9.918059e+000 
2328903845.625  -2.704312e+000  9.819038e+000 
2329074340  -2.709169e+000  9.769051e+000 
2329244834.375  -2.712630e+000  9.759566e+000 
2329415328.75  -2.718722e+000  9.682447e+000 
2329585823.125  -2.724478e+000  9.632211e+000 
2329756317.5  -2.731901e+000  9.554568e+000 
2329926811.875  -2.737302e+000  9.527988e+000 
2330097306.25  -2.740727e+000  9.465573e+000 
2330267800.625  -2.749814e+000  9.394659e+000 
2330438295  -2.748743e+000  9.350560e+000 
2330608789.375  -2.760987e+000  9.314618e+000 
2330779283.75  -2.764948e+000  9.203702e+000 
2330949778.125  -2.765637e+000  9.153009e+000 
2331120272.5  -2.774400e+000  9.103426e+000 
2331290766.875  -2.782554e+000  9.039571e+000 
2331461261.25  -2.787654e+000  8.962498e+000 
2331631755.625  -2.788982e+000  8.855226e+000 
2331802250  -2.800204e+000  8.839699e+000 
2331972744.375  -2.802760e+000  8.761671e+000 
2332143238.75  -2.812535e+000  8.723832e+000 
2332313733.125  -2.816004e+000  8.638386e+000 
2332484227.5  -2.824513e+000  8.564478e+000 
2332654721.875  -2.822964e+000  8.488304e+000 
2332825216.25  -2.831147e+000  8.421965e+000 
2332995710.625  -2.834297e+000  8.346000e+000 
2333166205  -2.839510e+000  8.335202e+000 
2333336699.375  -2.845770e+000  8.196049e+000 
2333507193.75  -2.851405e+000  8.166743e+000 
2333677688.125  -2.853928e+000  8.065066e+000 
2333848182.5  -2.860391e+000  7.987362e+000 
2334018676.875  -2.866550e+000  7.857054e+000 
2334189171.25  -2.875394e+000  7.863575e+000 
2334359665.625  -2.881456e+000  7.738702e+000 
2334530160  -2.881160e+000  7.713983e+000 
2334700654.375  -2.894236e+000  7.603908e+000 
2334871148.75  -2.900827e+000  7.522372e+000 
2335041643.125  -2.908525e+000  7.441856e+000 
2335212137.5  -2.920155e+000  7.343217e+000 
2335382631.875  -2.920435e+000  7.241631e+000 
2335553126.25  -2.931356e+000  7.165884e+000 
2335723620.625  -2.938781e+000  7.083961e+000 
2335894115  -2.947806e+000  6.991482e+000 
2336064609.375  -2.953211e+000  6.912405e+000 
2336235103.75  -2.964086e+000  6.825004e+000 
2336405598.125  -2.976564e+000  6.781634e+000 
2336576092.5  -2.979994e+000  6.672268e+000 
2336746586.875  -2.989392e+000  6.566354e+000 
2336917081.25  -2.995688e+000  6.514113e+000 
2337087575.625  -3.014393e+000  6.441620e+000 
2337258070  -3.020307e+000  6.358643e+000 
2337428564.375  -3.029781e+000  6.301409e+000 
2337599058.75  -3.040832e+000  6.176472e+000 
2337769553.125  -3.053935e+000  6.056866e+000 
2337940047.5  -3.066015e+000  6.027857e+000 
2338110541.875  -3.075475e+000  5.978915e+000 
2338281036.25  -3.086019e+000  5.836933e+000 
2338451530.625  -3.100159e+000  5.810139e+000 
2338622025  -3.114011e+000  5.713541e+000 
2338792519.375  -3.121808e+000  5.637429e+000 
2338963013.75  -3.137046e+000  5.566551e+000 
2339133508.125  -3.155670e+000  5.507224e+000 
2339304002.5  -3.160223e+000  5.403406e+000 
2339474496.875  -3.172799e+000  5.376578e+000 
2339644991.25  -3.187092e+000  5.285686e+000 
2339815485.625  -3.196263e+000  5.232279e+000 
2339985980  -3.218085e+000  5.181739e+000 
2340156474.375  -3.227458e+000  5.117044e+000 
2340326968.75  -3.241301e+000  5.032135e+000 
2340497463.125  -3.255275e+000  4.940782e+000 
2340667957.5  -3.263453e+000  4.948720e+000 
2340838451.875  -3.280496e+000  4.869934e+000 
2341008946.25  -3.290706e+000  4.788991e+000 
2341179440.625  -3.308163e+000  4.728777e+000 
2341349935  -3.318754e+000  4.712511e+000 
2341520429.375  -3.332184e+000  4.596465e+000 
2341690923.75  -3.345917e+000  4.599405e+000 
2341861418.125  -3.368628e+000  4.578168e+000 
2342031912.5  -3.376180e+000  4.513683e+000 
2342202406.875  -3.388368e+000  4.490005e+000 
2342372901.25  -3.403034e+000  4.367225e+000 
2342543395.625  -3.411445e+000  4.389331e+000 
2342713890  -3.424641e+000  4.332222e+000 
2342884384.375  -3.441869e+000  4.283424e+000 
2343054878.75  -3.453829e+000  4.229393e+000 
2343225373.125  -3.464775e+000  4.213989e+000 
2343395867.5  -3.478795e+000  4.194254e+000 
2343566361.875  -3.493207e+000  4.116147e+000 
2343736856.25  -3.509368e+000  4.084400e+000 
2343907350.625  -3.519204e+000  4.068896e+000 
2344077845  -3.533273e+000  4.007103e+000 
2344248339.375  -3.538408e+000  3.978686e+000 
2344418833.75  -3.553170e+000  3.971951e+000 
2344589328.125  -3.562209e+000  3.941757e+000 
2344759822.5  -3.578017e+000  3.893457e+000 
2344930316.875  -3.587609e+000  3.896468e+000 
2345100811.25  -3.592996e+000  3.877548e+000 
2345271305.625  -3.606374e+000  3.850007e+000 
2345441800  -3.614202e+000  3.786551e+000 
2345612294.375  -3.624528e+000  3.762799e+000 
2345782788.75  -3.645798e+000  3.732965e+000 
2345953283.125  -3.649024e+000  3.725574e+000 
2346123777.5  -3.664091e+000  3.686503e+000 
2346294271.875  -3.670522e+000  3.651259e+000 
2346464766.25  -3.679736e+000  3.662937e+000 
2346635260.625  -3.696264e+000  3.627583e+000 
2346805755  -3.703150e+000  3.645248e+000 
2346976249.375  -3.717209e+000  3.557128e+000 
2347146743.75  -3.728119e+000  3.545038e+000 
2347317238.125  -3.731352e+000  3.537721e+000 
2347487732.5  -3.738748e+000  3.526296e+000 
2347658226.875  -3.751232e+000  3.517659e+000 
2347828721.25  -3.756146e+000  3.499566e+000 
2347999215.625  -3.769624e+000  3.476908e+000 
2348169710  -3.787766e+000  3.456404e+000 
2348340204.375  -3.787163e+000  3.457683e+000 
2348510698.75  -3.797298e+000  3.428925e+000 
2348681193.125  -3.806463e+000  3.403432e+000 
2348851687.5  -3.813591e+000  3.355151e+000 
2349022181.875  -3.825666e+000  3.395002e+000 
2349192676.25  -3.831228e+000  3.392125e+000 
2349363170.625  -3.835436e+000  3.357747e+000 
2349533665  -3.843603e+000  3.310136e+000 
2349704159.375  -3.853758e+000  3.338889e+000 
2349874653.75  -3.856016e+000  3.292495e+000 
2350045148.125  -3.868963e+000  3.306798e+000 
2350215642.5  -3.862337e+000  3.321628e+000 
2350386136.875  -3.882930e+000  3.234173e+000 
2350556631.25  -3.878055e+000  3.236152e+000 
2350727125.625  -3.893608e+000  3.183009e+000 
2350897620  -3.891976e+000  3.167284e+000 
2351068114.375  -3.897024e+000  3.179588e+000 
2351238608.75  -3.906148e+000  3.094362e+000 
2351409103.125  -3.912649e+000  3.071746e+000 
2351579597.5  -3.908554e+000  3.078321e+000 
2351750091.875  -3.917206e+000  3.029793e+000 
2351920586.25  -3.924201e+000  2.999913e+000 
2352091080.625  -3.921108e+000  3.012385e+000 
2352261575  -3.931272e+000  2.944328e+000 
2352432069.375  -3.935037e+000  2.900699e+000 
2352602563.75  -3.937783e+000  2.866268e+000 
2352773058.125  -3.943393e+000  2.791111e+000 
2352943552.5  -3.945232e+000  2.799714e+000 
2353114046.875  -3.951381e+000  2.722969e+000 
2353284541.25  -3.952318e+000  2.697581e+000 
2353455035.625  -3.958353e+000  2.652812e+000 
2353625530  -3.960621e+000  2.634499e+000 
2353796024.375  -3.965086e+000  2.562572e+000 
2353966518.75  -3.966252e+000  2.480723e+000 
2354137013.125  -3.971168e+000  2.459453e+000 
2354307507.5  -3.980821e+000  2.431715e+000 
2354478001.875  -3.976216e+000  2.346868e+000 
2354648496.25  -3.976445e+000  2.327872e+000 
2354818990.625  -3.987110e+000  2.286886e+000 
2354989485  -3.986120e+000  2.234079e+000 
2355159979.375  -3.995973e+000  2.221372e+000 
2355330473.75  -3.996391e+000  2.144026e+000 
2355500968.125  -3.994576e+000  2.104786e+000 
2355671462.5  -4.002030e+000  2.032834e+000 
2355841956.875  -3.998423e+000  1.990954e+000 
2356012451.25  -4.007573e+000  1.893202e+000 
2356182945.625  -4.004111e+000  1.872561e+000 
2356353440  -4.004370e+000  1.822230e+000 
2356523934.375  -4.011208e+000  1.763015e+000 
2356694428.75  -4.008349e+000  1.709137e+000 
2356864923.125  -4.010721e+000  1.670856e+000 
2357035417.5  -4.012029e+000  1.631804e+000 
2357205911.875  -4.015587e+000  1.516407e+000 
2357376406.25  -4.020688e+000  1.461837e+000 
2357546900.625  -4.020652e+000  1.411283e+000 
2357717395  -4.023930e+000  1.305424e+000 
2357887889.375  -4.022129e+000  1.278295e+000 
2358058383.75  -4.031234e+000  1.171424e+000 
2358228878.125  -4.027342e+000  1.095707e+000 
2358399372.5  -4.028012e+000  9.854386e-001 
2358569866.875  -4.032063e+000  9.204575e-001 
2358740361.25  -4.033383e+000  8.170586e-001 
2358910855.625  -4.036632e+000  6.956547e-001 
2359081350  -4.041815e+000  6.523540e-001 
2359251844.375  -4.050101e+000  5.033531e-001 
2359422338.75  -4.049216e+000  3.957072e-001 
2359592833.125  -4.042213e+000  3.481678e-001 
2359763327.5  -4.051486e+000  2.160117e-001 
2359933821.875  -4.058934e+000  2.004671e-001 
2360104316.25  -4.064255e+000  5.645569e-002 
2360274810.625  -4.064502e+000  -9.104412e-002 
2360445305  -4.075174e+000  -1.866552e-001 
2360615799.375  -4.073602e+000  -2.971392e-001 
2360786293.75  -4.084496e+000  -4.415559e-001 
2360956788.125  -4.084761e+000  -5.616834e-001 
2361127282.5  -4.089789e+000  -6.640230e-001 
2361297776.875  -4.100389e+000  -7.761200e-001 
2361468271.25  -4.107563e+000  -9.206305e-001 
2361638765.625  -4.108321e+000  -1.021179e+000 
2361809260  -4.118946e+000  -1.200685e+000 
2361979754.375  -4.127029e+000  -1.342672e+000 
2362150248.75  -4.134789e+000  -1.415155e+000 
2362320743.125  -4.138193e+000  -1.520573e+000 
2362491237.5  -4.147784e+000  -1.651695e+000 
2362661731.875  -4.159269e+000  -1.844475e+000 
2362832226.25  -4.167664e+000  -1.953323e+000 
2363002720.625  -4.178793e+000  -2.046053e+000 
2363173215  -4.191046e+000  -2.235710e+000 
2363343709.375  -4.195190e+000  -2.359540e+000 
2363514203.75  -4.204886e+000  -2.482736e+000 
2363684698.125  -4.214472e+000  -2.583931e+000 
2363855192.5  -4.231439e+000  -2.728218e+000 
