!Agilent Technologies,N5230A,MY46400454,A.06.04.21
!Agilent N5230A: A.06.04.21
!Date: Sunday, October 28, 2018 12:14:29
!Correction: S11(Full 1 Port(1)) 
!S1P File: Measurement: S11:
# Hz S  dB   R 50
2290883600  -1.940931e+000  3.401804e+001 
2291054094.375  -1.944332e+000  3.399054e+001 
2291224588.75  -1.949958e+000  3.388124e+001 
2291395083.125  -1.952208e+000  3.380731e+001 
2291565577.5  -1.957781e+000  3.374545e+001 
2291736071.875  -1.960594e+000  3.367485e+001 
2291906566.25  -1.962822e+000  3.361072e+001 
2292077060.625  -1.968149e+000  3.356181e+001 
2292247555  -1.974007e+000  3.347351e+001 
2292418049.375  -1.978658e+000  3.340038e+001 
2292588543.75  -1.980159e+000  3.335347e+001 
2292759038.125  -1.990479e+000  3.327226e+001 
2292929532.5  -1.993319e+000  3.321917e+001 
2293100026.875  -1.993208e+000  3.315615e+001 
2293270521.25  -2.001182e+000  3.306841e+001 
2293441015.625  -2.005779e+000  3.298107e+001 
2293611510  -2.010969e+000  3.292222e+001 
2293782004.375  -2.015574e+000  3.288927e+001 
2293952498.75  -2.016484e+000  3.280091e+001 
2294122993.125  -2.018305e+000  3.278113e+001 
2294293487.5  -2.024919e+000  3.271980e+001 
2294463981.875  -2.027493e+000  3.262419e+001 
2294634476.25  -2.032511e+000  3.254956e+001 
2294804970.625  -2.037905e+000  3.247176e+001 
2294975465  -2.041121e+000  3.244613e+001 
2295145959.375  -2.044189e+000  3.236789e+001 
2295316453.75  -2.043414e+000  3.230564e+001 
2295486948.125  -2.052501e+000  3.218005e+001 
2295657442.5  -2.058098e+000  3.215171e+001 
2295827936.875  -2.062126e+000  3.205933e+001 
2295998431.25  -2.065803e+000  3.201930e+001 
2296168925.625  -2.069732e+000  3.191189e+001 
2296339420  -2.073838e+000  3.184347e+001 
2296509914.375  -2.080441e+000  3.179571e+001 
2296680408.75  -2.086052e+000  3.171354e+001 
2296850903.125  -2.088974e+000  3.163848e+001 
2297021397.5  -2.089176e+000  3.157157e+001 
2297191891.875  -2.099412e+000  3.147065e+001 
2297362386.25  -2.102520e+000  3.143791e+001 
2297532880.625  -2.109301e+000  3.139106e+001 
2297703375  -2.110562e+000  3.128463e+001 
2297873869.375  -2.113969e+000  3.120420e+001 
2298044363.75  -2.119731e+000  3.113225e+001 
2298214858.125  -2.127324e+000  3.109664e+001 
2298385352.5  -2.129323e+000  3.098330e+001 
2298555846.875  -2.134754e+000  3.097252e+001 
2298726341.25  -2.136530e+000  3.085993e+001 
2298896835.625  -2.147888e+000  3.077412e+001 
2299067330  -2.150862e+000  3.069359e+001 
2299237824.375  -2.156764e+000  3.065993e+001 
2299408318.75  -2.159247e+000  3.060824e+001 
2299578813.125  -2.165750e+000  3.051040e+001 
2299749307.5  -2.171215e+000  3.045357e+001 
2299919801.875  -2.176902e+000  3.038080e+001 
2300090296.25  -2.185410e+000  3.029510e+001 
2300260790.625  -2.186752e+000  3.024842e+001 
2300431285  -2.191474e+000  3.017529e+001 
2300601779.375  -2.196505e+000  3.011585e+001 
2300772273.75  -2.199570e+000  3.002683e+001 
2300942768.125  -2.203321e+000  2.994548e+001 
2301113262.5  -2.207942e+000  2.990774e+001 
2301283756.875  -2.214358e+000  2.980018e+001 
2301454251.25  -2.216588e+000  2.972695e+001 
2301624745.625  -2.224171e+000  2.967198e+001 
2301795240  -2.231802e+000  2.961106e+001 
2301965734.375  -2.233582e+000  2.957232e+001 
2302136228.75  -2.237797e+000  2.950517e+001 
2302306723.125  -2.239784e+000  2.941212e+001 
2302477217.5  -2.245951e+000  2.936705e+001 
2302647711.875  -2.251973e+000  2.930211e+001 
2302818206.25  -2.261675e+000  2.923869e+001 
2302988700.625  -2.264637e+000  2.918531e+001 
2303159195  -2.261353e+000  2.908487e+001 
2303329689.375  -2.264881e+000  2.903523e+001 
2303500183.75  -2.276072e+000  2.898147e+001 
2303670678.125  -2.279103e+000  2.891393e+001 
2303841172.5  -2.280809e+000  2.885874e+001 
2304011666.875  -2.286623e+000  2.875267e+001 
2304182161.25  -2.286577e+000  2.869994e+001 
2304352655.625  -2.292599e+000  2.861841e+001 
2304523150  -2.302998e+000  2.852587e+001 
2304693644.375  -2.302927e+000  2.847352e+001 
2304864138.75  -2.306792e+000  2.839493e+001 
2305034633.125  -2.308754e+000  2.830844e+001 
2305205127.5  -2.317281e+000  2.824631e+001 
2305375621.875  -2.322977e+000  2.814415e+001 
2305546116.25  -2.326027e+000  2.810839e+001 
2305716610.625  -2.332402e+000  2.801775e+001 
2305887105  -2.339107e+000  2.797115e+001 
2306057599.375  -2.341266e+000  2.788702e+001 
2306228093.75  -2.345938e+000  2.783492e+001 
2306398588.125  -2.349910e+000  2.773304e+001 
2306569082.5  -2.352845e+000  2.766926e+001 
2306739576.875  -2.360381e+000  2.760268e+001 
2306910071.25  -2.365326e+000  2.747625e+001 
2307080565.625  -2.368313e+000  2.738509e+001 
2307251060  -2.373325e+000  2.731872e+001 
2307421554.375  -2.378968e+000  2.726466e+001 
2307592048.75  -2.386810e+000  2.718322e+001 
2307762543.125  -2.395456e+000  2.710379e+001 
2307933037.5  -2.405861e+000  2.701181e+001 
2308103531.875  -2.402084e+000  2.693546e+001 
2308274026.25  -2.410811e+000  2.683379e+001 
2308444520.625  -2.417907e+000  2.676467e+001 
2308615015  -2.427544e+000  2.661510e+001 
2308785509.375  -2.429816e+000  2.657397e+001 
2308956003.75  -2.438623e+000  2.651198e+001 
2309126498.125  -2.448641e+000  2.639629e+001 
2309296992.5  -2.453246e+000  2.630135e+001 
2309467486.875  -2.467005e+000  2.624012e+001 
2309637981.25  -2.477545e+000  2.618056e+001 
2309808475.625  -2.482783e+000  2.607271e+001 
2309978970  -2.489642e+000  2.600759e+001 
2310149464.375  -2.497843e+000  2.589359e+001 
2310319958.75  -2.509402e+000  2.585409e+001 
2310490453.125  -2.518327e+000  2.578349e+001 
2310660947.5  -2.530619e+000  2.574040e+001 
2310831441.875  -2.540559e+000  2.563295e+001 
2311001936.25  -2.541787e+000  2.559082e+001 
2311172430.625  -2.555303e+000  2.552213e+001 
2311342925  -2.566772e+000  2.544518e+001 
2311513419.375  -2.571181e+000  2.538641e+001 
2311683913.75  -2.578795e+000  2.536270e+001 
2311854408.125  -2.589835e+000  2.528005e+001 
2312024902.5  -2.593530e+000  2.520668e+001 
2312195396.875  -2.604488e+000  2.513076e+001 
2312365891.25  -2.614650e+000  2.506155e+001 
2312536385.625  -2.624954e+000  2.500657e+001 
2312706880  -2.633096e+000  2.493648e+001 
2312877374.375  -2.640449e+000  2.489537e+001 
2313047868.75  -2.648075e+000  2.482432e+001 
2313218363.125  -2.655827e+000  2.479008e+001 
2313388857.5  -2.665210e+000  2.471054e+001 
2313559351.875  -2.675284e+000  2.464840e+001 
2313729846.25  -2.680056e+000  2.462453e+001 
2313900340.625  -2.688506e+000  2.457479e+001 
2314070835  -2.698758e+000  2.452502e+001 
2314241329.375  -2.705152e+000  2.444547e+001 
2314411823.75  -2.714795e+000  2.437882e+001 
2314582318.125  -2.723103e+000  2.432587e+001 
2314752812.5  -2.728628e+000  2.429143e+001 
2314923306.875  -2.740159e+000  2.422199e+001 
2315093801.25  -2.743997e+000  2.415882e+001 
2315264295.625  -2.758142e+000  2.409314e+001 
2315434790  -2.757851e+000  2.402916e+001 
2315605284.375  -2.770081e+000  2.403245e+001 
2315775778.75  -2.772981e+000  2.394671e+001 
2315946273.125  -2.781799e+000  2.386651e+001 
2316116767.5  -2.790716e+000  2.382992e+001 
2316287261.875  -2.798382e+000  2.372139e+001 
2316457756.25  -2.807158e+000  2.369973e+001 
2316628250.625  -2.812497e+000  2.363890e+001 
2316798745  -2.821060e+000  2.357150e+001 
2316969239.375  -2.824475e+000  2.353875e+001 
2317139733.75  -2.833785e+000  2.346439e+001 
2317310228.125  -2.842837e+000  2.339621e+001 
2317480722.5  -2.846334e+000  2.334135e+001 
2317651216.875  -2.854792e+000  2.329151e+001 
2317821711.25  -2.864129e+000  2.323625e+001 
2317992205.625  -2.868357e+000  2.319463e+001 
2318162700  -2.871412e+000  2.314769e+001 
2318333194.375  -2.879090e+000  2.307514e+001 
2318503688.75  -2.888196e+000  2.299823e+001 
2318674183.125  -2.896139e+000  2.292686e+001 
2318844677.5  -2.901225e+000  2.286770e+001 
2319015171.875  -2.908895e+000  2.279235e+001 
2319185666.25  -2.911559e+000  2.275150e+001 
2319356160.625  -2.923576e+000  2.269004e+001 
2319526655  -2.928757e+000  2.259447e+001 
2319697149.375  -2.941523e+000  2.254769e+001 
2319867643.75  -2.941995e+000  2.246598e+001 
2320038138.125  -2.953638e+000  2.243866e+001 
2320208632.5  -2.959313e+000  2.233900e+001 
2320379126.875  -2.963230e+000  2.232562e+001 
2320549621.25  -2.973592e+000  2.223043e+001 
2320720115.625  -2.981415e+000  2.218549e+001 
2320890610  -2.988453e+000  2.213039e+001 
2321061104.375  -2.996805e+000  2.205842e+001 
2321231598.75  -3.007052e+000  2.199403e+001 
2321402093.125  -3.018170e+000  2.192883e+001 
2321572587.5  -3.020840e+000  2.188396e+001 
2321743081.875  -3.032361e+000  2.179527e+001 
2321913576.25  -3.038417e+000  2.181472e+001 
2322084070.625  -3.043040e+000  2.168469e+001 
2322254565  -3.049629e+000  2.168473e+001 
2322425059.375  -3.059445e+000  2.155668e+001 
2322595553.75  -3.068285e+000  2.153844e+001 
2322766048.125  -3.078937e+000  2.147695e+001 
2322936542.5  -3.083466e+000  2.142369e+001 
2323107036.875  -3.097773e+000  2.133395e+001 
2323277531.25  -3.098158e+000  2.127028e+001 
2323448025.625  -3.108963e+000  2.120966e+001 
2323618520  -3.117379e+000  2.119345e+001 
2323789014.375  -3.124163e+000  2.114643e+001 
2323959508.75  -3.131374e+000  2.107872e+001 
2324130003.125  -3.139187e+000  2.103167e+001 
2324300497.5  -3.143647e+000  2.097805e+001 
2324470991.875  -3.153827e+000  2.087928e+001 
2324641486.25  -3.163306e+000  2.084872e+001 
2324811980.625  -3.171373e+000  2.079339e+001 
2324982475  -3.175246e+000  2.071817e+001 
2325152969.375  -3.188534e+000  2.067141e+001 
2325323463.75  -3.193665e+000  2.061284e+001 
2325493958.125  -3.201612e+000  2.053080e+001 
2325664452.5  -3.214113e+000  2.049561e+001 
2325834946.875  -3.225573e+000  2.044188e+001 
2326005441.25  -3.229385e+000  2.037966e+001 
2326175935.625  -3.236961e+000  2.033759e+001 
2326346430  -3.248189e+000  2.025495e+001 
2326516924.375  -3.254643e+000  2.021311e+001 
2326687418.75  -3.259762e+000  2.019383e+001 
2326857913.125  -3.269150e+000  2.011416e+001 
2327028407.5  -3.280485e+000  2.004973e+001 
2327198901.875  -3.285418e+000  2.000558e+001 
2327369396.25  -3.292817e+000  1.993910e+001 
2327539890.625  -3.305003e+000  1.992731e+001 
2327710385  -3.306103e+000  1.985270e+001 
2327880879.375  -3.313527e+000  1.978560e+001 
2328051373.75  -3.323915e+000  1.974125e+001 
2328221868.125  -3.323865e+000  1.968173e+001 
2328392362.5  -3.337380e+000  1.961313e+001 
2328562856.875  -3.342366e+000  1.957313e+001 
2328733351.25  -3.348450e+000  1.952801e+001 
2328903845.625  -3.356627e+000  1.944394e+001 
2329074340  -3.359248e+000  1.937774e+001 
2329244834.375  -3.374018e+000  1.936334e+001 
2329415328.75  -3.376449e+000  1.925066e+001 
2329585823.125  -3.384333e+000  1.919921e+001 
2329756317.5  -3.396331e+000  1.915254e+001 
2329926811.875  -3.395389e+000  1.911380e+001 
2330097306.25  -3.407848e+000  1.908604e+001 
2330267800.625  -3.410370e+000  1.896470e+001 
2330438295  -3.420229e+000  1.893901e+001 
2330608789.375  -3.425462e+000  1.884477e+001 
2330779283.75  -3.429445e+000  1.884876e+001 
2330949778.125  -3.437636e+000  1.876630e+001 
2331120272.5  -3.441914e+000  1.868198e+001 
2331290766.875  -3.447869e+000  1.862761e+001 
2331461261.25  -3.452557e+000  1.858087e+001 
2331631755.625  -3.459896e+000  1.848977e+001 
2331802250  -3.464452e+000  1.842574e+001 
2331972744.375  -3.467538e+000  1.838511e+001 
2332143238.75  -3.476339e+000  1.828667e+001 
2332313733.125  -3.482065e+000  1.819089e+001 
2332484227.5  -3.486831e+000  1.813987e+001 
2332654721.875  -3.490657e+000  1.808300e+001 
2332825216.25  -3.497127e+000  1.801637e+001 
2332995710.625  -3.505371e+000  1.792090e+001 
2333166205  -3.511025e+000  1.783510e+001 
2333336699.375  -3.513950e+000  1.778364e+001 
2333507193.75  -3.522949e+000  1.767901e+001 
2333677688.125  -3.527314e+000  1.758716e+001 
2333848182.5  -3.533913e+000  1.747875e+001 
2334018676.875  -3.542015e+000  1.746193e+001 
2334189171.25  -3.549074e+000  1.731039e+001 
2334359665.625  -3.557295e+000  1.722450e+001 
2334530160  -3.561889e+000  1.714205e+001 
2334700654.375  -3.566654e+000  1.708504e+001 
2334871148.75  -3.580532e+000  1.695639e+001 
2335041643.125  -3.584958e+000  1.689250e+001 
2335212137.5  -3.598192e+000  1.676809e+001 
2335382631.875  -3.609838e+000  1.667324e+001 
2335553126.25  -3.614512e+000  1.659286e+001 
2335723620.625  -3.624136e+000  1.650579e+001 
2335894115  -3.635470e+000  1.641957e+001 
2336064609.375  -3.647355e+000  1.636511e+001 
2336235103.75  -3.658204e+000  1.627561e+001 
2336405598.125  -3.664615e+000  1.615816e+001 
2336576092.5  -3.680417e+000  1.606808e+001 
2336746586.875  -3.685097e+000  1.599239e+001 
2336917081.25  -3.699284e+000  1.588851e+001 
2337087575.625  -3.710603e+000  1.581098e+001 
2337258070  -3.725691e+000  1.569954e+001 
2337428564.375  -3.732796e+000  1.566811e+001 
2337599058.75  -3.748573e+000  1.551461e+001 
2337769553.125  -3.749548e+000  1.544531e+001 
2337940047.5  -3.772937e+000  1.536225e+001 
2338110541.875  -3.785247e+000  1.532023e+001 
2338281036.25  -3.790023e+000  1.521136e+001 
2338451530.625  -3.819482e+000  1.513780e+001 
2338622025  -3.821983e+000  1.509852e+001 
2338792519.375  -3.838049e+000  1.499727e+001 
2338963013.75  -3.852217e+000  1.492302e+001 
2339133508.125  -3.868592e+000  1.487141e+001 
2339304002.5  -3.879794e+000  1.478193e+001 
2339474496.875  -3.891994e+000  1.470986e+001 
2339644991.25  -3.908988e+000  1.465928e+001 
2339815485.625  -3.919134e+000  1.457560e+001 
2339985980  -3.931316e+000  1.452821e+001 
2340156474.375  -3.945898e+000  1.445457e+001 
2340326968.75  -3.964403e+000  1.437440e+001 
2340497463.125  -3.981892e+000  1.433408e+001 
2340667957.5  -3.991395e+000  1.424164e+001 
2340838451.875  -3.999556e+000  1.422842e+001 
2341008946.25  -4.019943e+000  1.409283e+001 
2341179440.625  -4.037142e+000  1.408898e+001 
2341349935  -4.048749e+000  1.402802e+001 
2341520429.375  -4.069842e+000  1.394421e+001 
2341690923.75  -4.080403e+000  1.392406e+001 
2341861418.125  -4.095332e+000  1.386821e+001 
2342031912.5  -4.108102e+000  1.381532e+001 
2342202406.875  -4.116626e+000  1.378864e+001 
2342372901.25  -4.139525e+000  1.369673e+001 
2342543395.625  -4.146252e+000  1.368055e+001 
2342713890  -4.164236e+000  1.363135e+001 
2342884384.375  -4.180930e+000  1.353411e+001 
2343054878.75  -4.194312e+000  1.349809e+001 
2343225373.125  -4.209646e+000  1.346741e+001 
2343395867.5  -4.222992e+000  1.345976e+001 
2343566361.875  -4.237913e+000  1.339967e+001 
2343736856.25  -4.249821e+000  1.336053e+001 
2343907350.625  -4.265174e+000  1.332884e+001 
2344077845  -4.279677e+000  1.330968e+001 
2344248339.375  -4.299469e+000  1.323598e+001 
2344418833.75  -4.307286e+000  1.322844e+001 
2344589328.125  -4.317572e+000  1.315547e+001 
2344759822.5  -4.333562e+000  1.315693e+001 
2344930316.875  -4.348160e+000  1.313777e+001 
2345100811.25  -4.357430e+000  1.309034e+001 
2345271305.625  -4.366433e+000  1.299599e+001 
2345441800  -4.380500e+000  1.300910e+001 
2345612294.375  -4.395620e+000  1.305543e+001 
2345782788.75  -4.406860e+000  1.296389e+001 
2345953283.125  -4.424237e+000  1.293977e+001 
2346123777.5  -4.434304e+000  1.294292e+001 
2346294271.875  -4.447350e+000  1.289632e+001 
2346464766.25  -4.462367e+000  1.289092e+001 
2346635260.625  -4.480886e+000  1.285195e+001 
2346805755  -4.481771e+000  1.288431e+001 
2346976249.375  -4.495626e+000  1.282866e+001 
2347146743.75  -4.506337e+000  1.285619e+001 
2347317238.125  -4.519246e+000  1.278215e+001 
2347487732.5  -4.528150e+000  1.277949e+001 
2347658226.875  -4.539685e+000  1.277168e+001 
2347828721.25  -4.551833e+000  1.273026e+001 
2347999215.625  -4.559202e+000  1.270755e+001 
2348169710  -4.565896e+000  1.273642e+001 
2348340204.375  -4.585401e+000  1.269695e+001 
2348510698.75  -4.590890e+000  1.269480e+001 
2348681193.125  -4.601593e+000  1.264790e+001 
2348851687.5  -4.609308e+000  1.264963e+001 
2349022181.875  -4.617382e+000  1.266842e+001 
2349192676.25  -4.619906e+000  1.264821e+001 
2349363170.625  -4.637745e+000  1.261256e+001 
2349533665  -4.646827e+000  1.261664e+001 
2349704159.375  -4.650531e+000  1.260289e+001 
2349874653.75  -4.659874e+000  1.254303e+001 
2350045148.125  -4.671402e+000  1.257041e+001 
2350215642.5  -4.672931e+000  1.255368e+001 
2350386136.875  -4.684807e+000  1.253025e+001 
2350556631.25  -4.689681e+000  1.249825e+001 
2350727125.625  -4.689357e+000  1.244085e+001 
2350897620  -4.697951e+000  1.247833e+001 
2351068114.375  -4.707705e+000  1.244239e+001 
2351238608.75  -4.712989e+000  1.242062e+001 
2351409103.125  -4.712523e+000  1.237348e+001 
2351579597.5  -4.715322e+000  1.237376e+001 
2351750091.875  -4.724848e+000  1.231295e+001 
2351920586.25  -4.727601e+000  1.231080e+001 
2352091080.625  -4.731197e+000  1.231489e+001 
2352261575  -4.731146e+000  1.222872e+001 
2352432069.375  -4.740766e+000  1.212552e+001 
2352602563.75  -4.745667e+000  1.219751e+001 
2352773058.125  -4.747733e+000  1.211745e+001 
2352943552.5  -4.757627e+000  1.209363e+001 
2353114046.875  -4.757462e+000  1.202615e+001 
2353284541.25  -4.760914e+000  1.199635e+001 
2353455035.625  -4.760468e+000  1.193248e+001 
2353625530  -4.770517e+000  1.187284e+001 
2353796024.375  -4.769371e+000  1.186053e+001 
2353966518.75  -4.773092e+000  1.179064e+001 
2354137013.125  -4.777647e+000  1.177682e+001 
2354307507.5  -4.779431e+000  1.168019e+001 
2354478001.875  -4.782419e+000  1.164376e+001 
2354648496.25  -4.785768e+000  1.162065e+001 
2354818990.625  -4.788788e+000  1.155335e+001 
2354989485  -4.794466e+000  1.150402e+001 
2355159979.375  -4.797636e+000  1.142509e+001 
2355330473.75  -4.799600e+000  1.143713e+001 
2355500968.125  -4.802318e+000  1.130147e+001 
2355671462.5  -4.801508e+000  1.125478e+001 
2355841956.875  -4.807871e+000  1.123077e+001 
2356012451.25  -4.807754e+000  1.120340e+001 
2356182945.625  -4.812701e+000  1.107175e+001 
2356353440  -4.813105e+000  1.104206e+001 
2356523934.375  -4.808817e+000  1.096227e+001 
2356694428.75  -4.814008e+000  1.088559e+001 
2356864923.125  -4.819639e+000  1.083252e+001 
2357035417.5  -4.817133e+000  1.075078e+001 
2357205911.875  -4.818581e+000  1.063910e+001 
2357376406.25  -4.821972e+000  1.057295e+001 
2357546900.625  -4.823791e+000  1.050422e+001 
2357717395  -4.828791e+000  1.041916e+001 
2357887889.375  -4.827105e+000  1.035986e+001 
2358058383.75  -4.827932e+000  1.023618e+001 
2358228878.125  -4.835979e+000  1.010094e+001 
2358399372.5  -4.840826e+000  1.001624e+001 
2358569866.875  -4.841687e+000  9.940955e+000 
2358740361.25  -4.842002e+000  9.863272e+000 
2358910855.625  -4.847219e+000  9.712131e+000 
2359081350  -4.848525e+000  9.619088e+000 
2359251844.375  -4.850813e+000  9.491003e+000 
2359422338.75  -4.859503e+000  9.403144e+000 
2359592833.125  -4.861626e+000  9.269351e+000 
2359763327.5  -4.865148e+000  9.162066e+000 
2359933821.875  -4.867367e+000  9.045735e+000 
2360104316.25  -4.868958e+000  8.961274e+000 
2360274810.625  -4.879924e+000  8.774142e+000 
2360445305  -4.885414e+000  8.718456e+000 
2360615799.375  -4.892789e+000  8.500152e+000 
2360786293.75  -4.890975e+000  8.447408e+000 
2360956788.125  -4.902349e+000  8.285272e+000 
2361127282.5  -4.908792e+000  8.131754e+000 
2361297776.875  -4.916419e+000  7.967283e+000 
2361468271.25  -4.925962e+000  7.856751e+000 
2361638765.625  -4.937665e+000  7.684659e+000 
2361809260  -4.938122e+000  7.553594e+000 
2361979754.375  -4.945975e+000  7.395694e+000 
2362150248.75  -4.961221e+000  7.273043e+000 
2362320743.125  -4.969641e+000  7.141203e+000 
2362491237.5  -4.982916e+000  6.961047e+000 
2362661731.875  -4.993032e+000  6.861761e+000 
2362832226.25  -5.002571e+000  6.683730e+000 
2363002720.625  -5.014652e+000  6.535854e+000 
2363173215  -5.029321e+000  6.388712e+000 
2363343709.375  -5.037530e+000  6.211698e+000 
2363514203.75  -5.048968e+000  6.090276e+000 
2363684698.125  -5.067457e+000  5.915000e+000 
2363855192.5  -5.072830e+000  5.800966e+000 
2364025686.875  -5.090004e+000  5.612651e+000 
