!Agilent Technologies,N5230A,MY46400454,A.06.04.21
!Agilent N5230A: A.06.04.21
!Date: Sunday, October 28, 2018 12:14:51
!Correction: S11(Full 1 Port(1)) 
!S1P File: Measurement: S11:
# Hz S  dB   R 50
2290883600  -1.190527e+000  3.571497e+001 
2291054094.375  -1.193167e+000  3.563966e+001 
2291224588.75  -1.198507e+000  3.557344e+001 
2291395083.125  -1.202313e+000  3.555597e+001 
2291565577.5  -1.203809e+000  3.543711e+001 
2291736071.875  -1.207814e+000  3.541414e+001 
2291906566.25  -1.209022e+000  3.531484e+001 
2292077060.625  -1.215593e+000  3.523186e+001 
2292247555  -1.220070e+000  3.516064e+001 
2292418049.375  -1.225556e+000  3.509375e+001 
2292588543.75  -1.223709e+000  3.503194e+001 
2292759038.125  -1.231314e+000  3.496655e+001 
2292929532.5  -1.235546e+000  3.490033e+001 
2293100026.875  -1.237797e+000  3.481367e+001 
2293270521.25  -1.244730e+000  3.474389e+001 
2293441015.625  -1.244225e+000  3.467515e+001 
2293611510  -1.253183e+000  3.463069e+001 
2293782004.375  -1.250216e+000  3.452631e+001 
2293952498.75  -1.257227e+000  3.447399e+001 
2294122993.125  -1.262263e+000  3.441696e+001 
2294293487.5  -1.266828e+000  3.435047e+001 
2294463981.875  -1.269608e+000  3.425568e+001 
2294634476.25  -1.270643e+000  3.419702e+001 
2294804970.625  -1.275354e+000  3.413540e+001 
2294975465  -1.279399e+000  3.403219e+001 
2295145959.375  -1.281866e+000  3.398221e+001 
2295316453.75  -1.287504e+000  3.389580e+001 
2295486948.125  -1.294488e+000  3.383794e+001 
2295657442.5  -1.294262e+000  3.377248e+001 
2295827936.875  -1.299321e+000  3.368064e+001 
2295998431.25  -1.303052e+000  3.362062e+001 
2296168925.625  -1.307284e+000  3.355930e+001 
2296339420  -1.307287e+000  3.347205e+001 
2296509914.375  -1.314213e+000  3.336169e+001 
2296680408.75  -1.316520e+000  3.333912e+001 
2296850903.125  -1.325481e+000  3.325304e+001 
2297021397.5  -1.326355e+000  3.317669e+001 
2297191891.875  -1.333523e+000  3.311177e+001 
2297362386.25  -1.332685e+000  3.303180e+001 
2297532880.625  -1.342480e+000  3.297849e+001 
2297703375  -1.343087e+000  3.290188e+001 
2297873869.375  -1.345099e+000  3.284649e+001 
2298044363.75  -1.351399e+000  3.271819e+001 
2298214858.125  -1.357179e+000  3.268776e+001 
2298385352.5  -1.358572e+000  3.257572e+001 
2298555846.875  -1.359496e+000  3.254036e+001 
2298726341.25  -1.366371e+000  3.245508e+001 
2298896835.625  -1.370459e+000  3.239272e+001 
2299067330  -1.380961e+000  3.233072e+001 
2299237824.375  -1.380643e+000  3.226824e+001 
2299408318.75  -1.388808e+000  3.216777e+001 
2299578813.125  -1.395156e+000  3.209917e+001 
2299749307.5  -1.393599e+000  3.200254e+001 
2299919801.875  -1.401698e+000  3.196217e+001 
2300090296.25  -1.405588e+000  3.190197e+001 
2300260790.625  -1.408201e+000  3.182844e+001 
2300431285  -1.412283e+000  3.175475e+001 
2300601779.375  -1.411644e+000  3.169352e+001 
2300772273.75  -1.423005e+000  3.159810e+001 
2300942768.125  -1.424915e+000  3.150289e+001 
2301113262.5  -1.427342e+000  3.145778e+001 
2301283756.875  -1.429641e+000  3.139465e+001 
2301454251.25  -1.438977e+000  3.128210e+001 
2301624745.625  -1.443186e+000  3.122273e+001 
2301795240  -1.446579e+000  3.116489e+001 
2301965734.375  -1.453540e+000  3.108106e+001 
2302136228.75  -1.458393e+000  3.101156e+001 
2302306723.125  -1.454916e+000  3.092130e+001 
2302477217.5  -1.463009e+000  3.087897e+001 
2302647711.875  -1.470864e+000  3.080643e+001 
2302818206.25  -1.470929e+000  3.071205e+001 
2302988700.625  -1.475821e+000  3.069810e+001 
2303159195  -1.482817e+000  3.060877e+001 
2303329689.375  -1.481259e+000  3.049360e+001 
2303500183.75  -1.490659e+000  3.042854e+001 
2303670678.125  -1.494029e+000  3.038984e+001 
2303841172.5  -1.495620e+000  3.032210e+001 
2304011666.875  -1.499829e+000  3.019800e+001 
2304182161.25  -1.507069e+000  3.013066e+001 
2304352655.625  -1.511593e+000  3.006205e+001 
2304523150  -1.511445e+000  2.998557e+001 
2304693644.375  -1.517432e+000  2.995084e+001 
2304864138.75  -1.520625e+000  2.984164e+001 
2305034633.125  -1.524901e+000  2.973240e+001 
2305205127.5  -1.531043e+000  2.969745e+001 
2305375621.875  -1.538405e+000  2.964110e+001 
2305546116.25  -1.544692e+000  2.951077e+001 
2305716610.625  -1.544822e+000  2.947507e+001 
2305887105  -1.550261e+000  2.942911e+001 
2306057599.375  -1.558369e+000  2.933446e+001 
2306228093.75  -1.558602e+000  2.925517e+001 
2306398588.125  -1.563080e+000  2.919315e+001 
2306569082.5  -1.569006e+000  2.910505e+001 
2306739576.875  -1.572495e+000  2.902527e+001 
2306910071.25  -1.577296e+000  2.896670e+001 
2307080565.625  -1.583123e+000  2.884939e+001 
2307251060  -1.587461e+000  2.876053e+001 
2307421554.375  -1.590042e+000  2.869511e+001 
2307592048.75  -1.600617e+000  2.860507e+001 
2307762543.125  -1.606770e+000  2.853559e+001 
2307933037.5  -1.609747e+000  2.843956e+001 
2308103531.875  -1.615007e+000  2.836073e+001 
2308274026.25  -1.622286e+000  2.823588e+001 
2308444520.625  -1.622953e+000  2.815959e+001 
2308615015  -1.631517e+000  2.805200e+001 
2308785509.375  -1.638596e+000  2.797752e+001 
2308956003.75  -1.644642e+000  2.791456e+001 
2309126498.125  -1.651040e+000  2.782499e+001 
2309296992.5  -1.661953e+000  2.773408e+001 
2309467486.875  -1.664023e+000  2.762898e+001 
2309637981.25  -1.674971e+000  2.755649e+001 
2309808475.625  -1.682531e+000  2.748208e+001 
2309978970  -1.689214e+000  2.734546e+001 
2310149464.375  -1.694610e+000  2.729198e+001 
2310319958.75  -1.710369e+000  2.721913e+001 
2310490453.125  -1.715823e+000  2.710662e+001 
2310660947.5  -1.726697e+000  2.704825e+001 
2310831441.875  -1.730756e+000  2.698058e+001 
2311001936.25  -1.741493e+000  2.692120e+001 
2311172430.625  -1.749457e+000  2.683463e+001 
2311342925  -1.750137e+000  2.674320e+001 
2311513419.375  -1.762144e+000  2.669195e+001 
2311683913.75  -1.772766e+000  2.663428e+001 
2311854408.125  -1.776940e+000  2.652886e+001 
2312024902.5  -1.787601e+000  2.648163e+001 
2312195396.875  -1.797205e+000  2.642266e+001 
2312365891.25  -1.802135e+000  2.633996e+001 
2312536385.625  -1.812863e+000  2.627293e+001 
2312706880  -1.820820e+000  2.620337e+001 
2312877374.375  -1.823919e+000  2.611193e+001 
2313047868.75  -1.832291e+000  2.604199e+001 
2313218363.125  -1.847271e+000  2.598249e+001 
2313388857.5  -1.853093e+000  2.594097e+001 
2313559351.875  -1.859741e+000  2.583707e+001 
2313729846.25  -1.870791e+000  2.580627e+001 
2313900340.625  -1.877482e+000  2.569985e+001 
2314070835  -1.884044e+000  2.563672e+001 
2314241329.375  -1.896370e+000  2.558060e+001 
2314411823.75  -1.905221e+000  2.552818e+001 
2314582318.125  -1.908612e+000  2.545446e+001 
2314752812.5  -1.919534e+000  2.539023e+001 
2314923306.875  -1.925669e+000  2.534249e+001 
2315093801.25  -1.936219e+000  2.527064e+001 
2315264295.625  -1.942158e+000  2.518734e+001 
2315434790  -1.950745e+000  2.513724e+001 
2315605284.375  -1.958573e+000  2.503774e+001 
2315775778.75  -1.968192e+000  2.501076e+001 
2315946273.125  -1.977293e+000  2.494753e+001 
2316116767.5  -1.984823e+000  2.486143e+001 
2316287261.875  -1.997263e+000  2.480973e+001 
2316457756.25  -2.000139e+000  2.474162e+001 
2316628250.625  -2.011657e+000  2.468242e+001 
2316798745  -2.019259e+000  2.461954e+001 
2316969239.375  -2.029889e+000  2.458989e+001 
2317139733.75  -2.034785e+000  2.450891e+001 
2317310228.125  -2.038801e+000  2.444498e+001 
2317480722.5  -2.048521e+000  2.441311e+001 
2317651216.875  -2.059536e+000  2.432091e+001 
2317821711.25  -2.065825e+000  2.427974e+001 
2317992205.625  -2.073863e+000  2.422114e+001 
2318162700  -2.080647e+000  2.414808e+001 
2318333194.375  -2.087091e+000  2.408932e+001 
2318503688.75  -2.092985e+000  2.402831e+001 
2318674183.125  -2.103727e+000  2.396032e+001 
2318844677.5  -2.108450e+000  2.387620e+001 
2319015171.875  -2.111750e+000  2.381561e+001 
2319185666.25  -2.123124e+000  2.378374e+001 
2319356160.625  -2.125352e+000  2.368615e+001 
2319526655  -2.138888e+000  2.360898e+001 
2319697149.375  -2.143239e+000  2.354945e+001 
2319867643.75  -2.153248e+000  2.352618e+001 
2320038138.125  -2.160430e+000  2.345738e+001 
2320208632.5  -2.165271e+000  2.339309e+001 
2320379126.875  -2.173567e+000  2.333364e+001 
2320549621.25  -2.179351e+000  2.327327e+001 
2320720115.625  -2.187245e+000  2.319173e+001 
2320890610  -2.198295e+000  2.315538e+001 
2321061104.375  -2.205734e+000  2.299614e+001 
2321231598.75  -2.213572e+000  2.300395e+001 
2321402093.125  -2.220192e+000  2.292968e+001 
2321572587.5  -2.231572e+000  2.288117e+001 
2321743081.875  -2.235508e+000  2.284376e+001 
2321913576.25  -2.241561e+000  2.275266e+001 
2322084070.625  -2.254217e+000  2.273627e+001 
2322254565  -2.262494e+000  2.263180e+001 
2322425059.375  -2.264939e+000  2.261156e+001 
2322595553.75  -2.270944e+000  2.253853e+001 
2322766048.125  -2.284839e+000  2.245277e+001 
2322936542.5  -2.293433e+000  2.237830e+001 
2323107036.875  -2.297522e+000  2.233211e+001 
2323277531.25  -2.306561e+000  2.226507e+001 
2323448025.625  -2.315733e+000  2.224646e+001 
2323618520  -2.326126e+000  2.219657e+001 
2323789014.375  -2.331016e+000  2.213743e+001 
2323959508.75  -2.340992e+000  2.203803e+001 
2324130003.125  -2.341590e+000  2.199867e+001 
2324300497.5  -2.351258e+000  2.193959e+001 
2324470991.875  -2.359324e+000  2.188502e+001 
2324641486.25  -2.370830e+000  2.181848e+001 
2324811980.625  -2.376902e+000  2.174995e+001 
2324982475  -2.384279e+000  2.169576e+001 
2325152969.375  -2.390852e+000  2.159916e+001 
2325323463.75  -2.401947e+000  2.158238e+001 
2325493958.125  -2.407389e+000  2.152219e+001 
2325664452.5  -2.422092e+000  2.144718e+001 
2325834946.875  -2.426517e+000  2.141187e+001 
2326005441.25  -2.433754e+000  2.132289e+001 
2326175935.625  -2.438666e+000  2.126892e+001 
2326346430  -2.448483e+000  2.121581e+001 
2326516924.375  -2.453688e+000  2.116055e+001 
2326687418.75  -2.467213e+000  2.108719e+001 
2326857913.125  -2.470141e+000  2.104170e+001 
2327028407.5  -2.480465e+000  2.098486e+001 
2327198901.875  -2.490030e+000  2.090580e+001 
2327369396.25  -2.494386e+000  2.085233e+001 
2327539890.625  -2.504478e+000  2.078732e+001 
2327710385  -2.512439e+000  2.073412e+001 
2327880879.375  -2.519455e+000  2.068634e+001 
2328051373.75  -2.519899e+000  2.060594e+001 
2328221868.125  -2.533608e+000  2.057335e+001 
2328392362.5  -2.536460e+000  2.050990e+001 
2328562856.875  -2.544687e+000  2.040844e+001 
2328733351.25  -2.552353e+000  2.035343e+001 
2328903845.625  -2.561260e+000  2.031861e+001 
2329074340  -2.568888e+000  2.021984e+001 
2329244834.375  -2.578303e+000  2.017068e+001 
2329415328.75  -2.583558e+000  2.015002e+001 
2329585823.125  -2.591743e+000  2.002257e+001 
2329756317.5  -2.599496e+000  1.998921e+001 
2329926811.875  -2.604143e+000  1.998001e+001 
2330097306.25  -2.616777e+000  1.988113e+001 
2330267800.625  -2.622458e+000  1.980552e+001 
2330438295  -2.624662e+000  1.972399e+001 
2330608789.375  -2.632307e+000  1.970643e+001 
2330779283.75  -2.637753e+000  1.961398e+001 
2330949778.125  -2.643783e+000  1.955361e+001 
2331120272.5  -2.652719e+000  1.949093e+001 
2331290766.875  -2.656976e+000  1.939939e+001 
2331461261.25  -2.662952e+000  1.933447e+001 
2331631755.625  -2.669426e+000  1.927730e+001 
2331802250  -2.676716e+000  1.917937e+001 
2331972744.375  -2.681164e+000  1.912263e+001 
2332143238.75  -2.693584e+000  1.907145e+001 
2332313733.125  -2.698517e+000  1.898103e+001 
2332484227.5  -2.702911e+000  1.891815e+001 
2332654721.875  -2.712858e+000  1.885889e+001 
2332825216.25  -2.714639e+000  1.872462e+001 
2332995710.625  -2.722644e+000  1.867139e+001 
2333166205  -2.733031e+000  1.860356e+001 
2333336699.375  -2.731599e+000  1.850598e+001 
2333507193.75  -2.739513e+000  1.844160e+001 
2333677688.125  -2.748165e+000  1.835214e+001 
2333848182.5  -2.751643e+000  1.828995e+001 
2334018676.875  -2.764077e+000  1.820819e+001 
2334189171.25  -2.771829e+000  1.810237e+001 
2334359665.625  -2.776039e+000  1.801506e+001 
2334530160  -2.787604e+000  1.791541e+001 
2334700654.375  -2.791126e+000  1.782920e+001 
2334871148.75  -2.798035e+000  1.776650e+001 
2335041643.125  -2.810059e+000  1.767911e+001 
2335212137.5  -2.818248e+000  1.759275e+001 
2335382631.875  -2.823715e+000  1.747008e+001 
2335553126.25  -2.839411e+000  1.739989e+001 
2335723620.625  -2.845362e+000  1.729924e+001 
2335894115  -2.857582e+000  1.723284e+001 
2336064609.375  -2.862748e+000  1.715181e+001 
2336235103.75  -2.877767e+000  1.702502e+001 
2336405598.125  -2.883350e+000  1.690944e+001 
2336576092.5  -2.896241e+000  1.684132e+001 
2336746586.875  -2.909727e+000  1.677421e+001 
2336917081.25  -2.920574e+000  1.666437e+001 
2337087575.625  -2.930086e+000  1.659608e+001 
2337258070  -2.942743e+000  1.651804e+001 
2337428564.375  -2.952421e+000  1.643665e+001 
2337599058.75  -2.965853e+000  1.633272e+001 
2337769553.125  -2.973675e+000  1.624392e+001 
2337940047.5  -2.992293e+000  1.613660e+001 
2338110541.875  -3.000905e+000  1.608929e+001 
2338281036.25  -3.015613e+000  1.600826e+001 
2338451530.625  -3.028250e+000  1.592798e+001 
2338622025  -3.047975e+000  1.584466e+001 
2338792519.375  -3.051656e+000  1.575574e+001 
2338963013.75  -3.068401e+000  1.568550e+001 
2339133508.125  -3.085100e+000  1.563216e+001 
2339304002.5  -3.098448e+000  1.555571e+001 
2339474496.875  -3.105434e+000  1.548002e+001 
2339644991.25  -3.120269e+000  1.539854e+001 
2339815485.625  -3.130643e+000  1.533455e+001 
2339985980  -3.154498e+000  1.523480e+001 
2340156474.375  -3.164735e+000  1.515114e+001 
2340326968.75  -3.178572e+000  1.511125e+001 
2340497463.125  -3.197339e+000  1.506418e+001 
2340667957.5  -3.207516e+000  1.495534e+001 
2340838451.875  -3.225658e+000  1.490736e+001 
2341008946.25  -3.239786e+000  1.483162e+001 
2341179440.625  -3.255699e+000  1.478741e+001 
2341349935  -3.271814e+000  1.472015e+001 
2341520429.375  -3.280888e+000  1.466020e+001 
2341690923.75  -3.300322e+000  1.462233e+001 
2341861418.125  -3.315774e+000  1.453618e+001 
2342031912.5  -3.327939e+000  1.448527e+001 
2342202406.875  -3.343037e+000  1.441448e+001 
2342372901.25  -3.359848e+000  1.438956e+001 
2342543395.625  -3.374911e+000  1.430389e+001 
2342713890  -3.390355e+000  1.430570e+001 
2342884384.375  -3.399255e+000  1.425076e+001 
2343054878.75  -3.421484e+000  1.417342e+001 
2343225373.125  -3.434908e+000  1.410245e+001 
2343395867.5  -3.447192e+000  1.405397e+001 
2343566361.875  -3.458042e+000  1.404405e+001 
2343736856.25  -3.478105e+000  1.398828e+001 
2343907350.625  -3.490529e+000  1.401809e+001 
2344077845  -3.510835e+000  1.394193e+001 
2344248339.375  -3.521973e+000  1.384981e+001 
2344418833.75  -3.530958e+000  1.384009e+001 
2344589328.125  -3.545433e+000  1.381017e+001 
2344759822.5  -3.557994e+000  1.378976e+001 
2344930316.875  -3.575034e+000  1.380350e+001 
2345100811.25  -3.587681e+000  1.371035e+001 
2345271305.625  -3.599198e+000  1.370070e+001 
2345441800  -3.617419e+000  1.370163e+001 
2345612294.375  -3.626909e+000  1.363839e+001 
2345782788.75  -3.645015e+000  1.363084e+001 
2345953283.125  -3.659681e+000  1.360958e+001 
2346123777.5  -3.667538e+000  1.360951e+001 
2346294271.875  -3.679166e+000  1.351425e+001 
2346464766.25  -3.692665e+000  1.350448e+001 
2346635260.625  -3.705940e+000  1.347987e+001 
2346805755  -3.722409e+000  1.349465e+001 
2346976249.375  -3.733793e+000  1.344769e+001 
2347146743.75  -3.741736e+000  1.344589e+001 
2347317238.125  -3.749215e+000  1.340031e+001 
2347487732.5  -3.761985e+000  1.340298e+001 
2347658226.875  -3.777845e+000  1.340532e+001 
2347828721.25  -3.784929e+000  1.337933e+001 
2347999215.625  -3.801055e+000  1.334377e+001 
2348169710  -3.808371e+000  1.330650e+001 
2348340204.375  -3.821040e+000  1.333102e+001 
2348510698.75  -3.834844e+000  1.328776e+001 
2348681193.125  -3.842676e+000  1.329926e+001 
2348851687.5  -3.849700e+000  1.323009e+001 
2349022181.875  -3.862294e+000  1.320751e+001 
2349192676.25  -3.868870e+000  1.322690e+001 
2349363170.625  -3.880359e+000  1.320999e+001 
2349533665  -3.892953e+000  1.318050e+001 
2349704159.375  -3.899312e+000  1.316048e+001 
2349874653.75  -3.910355e+000  1.311690e+001 
2350045148.125  -3.921518e+000  1.312453e+001 
2350215642.5  -3.930716e+000  1.312857e+001 
2350386136.875  -3.939340e+000  1.307021e+001 
2350556631.25  -3.947727e+000  1.309347e+001 
2350727125.625  -3.953641e+000  1.302979e+001 
2350897620  -3.958305e+000  1.302760e+001 
2351068114.375  -3.963894e+000  1.300892e+001 
2351238608.75  -3.972576e+000  1.300091e+001 
2351409103.125  -3.978938e+000  1.294153e+001 
2351579597.5  -3.987230e+000  1.299019e+001 
2351750091.875  -3.992968e+000  1.293747e+001 
2351920586.25  -3.999299e+000  1.287688e+001 
2352091080.625  -4.005117e+000  1.290849e+001 
2352261575  -4.009602e+000  1.285282e+001 
2352432069.375  -4.017975e+000  1.283141e+001 
2352602563.75  -4.023271e+000  1.275102e+001 
2352773058.125  -4.025356e+000  1.274289e+001 
2352943552.5  -4.030685e+000  1.272573e+001 
2353114046.875  -4.039567e+000  1.268744e+001 
2353284541.25  -4.045519e+000  1.266452e+001 
2353455035.625  -4.048204e+000  1.264501e+001 
2353625530  -4.051286e+000  1.260723e+001 
2353796024.375  -4.054553e+000  1.255688e+001 
2353966518.75  -4.061935e+000  1.251973e+001 
2354137013.125  -4.071415e+000  1.247137e+001 
2354307507.5  -4.070388e+000  1.244666e+001 
2354478001.875  -4.073729e+000  1.237857e+001 
2354648496.25  -4.076522e+000  1.238300e+001 
2354818990.625  -4.079432e+000  1.230403e+001 
2354989485  -4.082131e+000  1.228368e+001 
2355159979.375  -4.082781e+000  1.223051e+001 
2355330473.75  -4.088688e+000  1.220210e+001 
2355500968.125  -4.093219e+000  1.213216e+001 
2355671462.5  -4.099299e+000  1.213014e+001 
2355841956.875  -4.100663e+000  1.202408e+001 
2356012451.25  -4.104363e+000  1.199873e+001 
2356182945.625  -4.103996e+000  1.193517e+001 
2356353440  -4.107667e+000  1.189977e+001 
2356523934.375  -4.117458e+000  1.186306e+001 
2356694428.75  -4.114779e+000  1.177874e+001 
2356864923.125  -4.115364e+000  1.174467e+001 
2357035417.5  -4.119266e+000  1.163645e+001 
2357205911.875  -4.120103e+000  1.159180e+001 
2357376406.25  -4.122871e+000  1.153062e+001 
2357546900.625  -4.126683e+000  1.146915e+001 
2357717395  -4.127456e+000  1.135726e+001 
2357887889.375  -4.133887e+000  1.133008e+001 
2358058383.75  -4.133359e+000  1.123991e+001 
2358228878.125  -4.134421e+000  1.119941e+001 
2358399372.5  -4.135062e+000  1.110992e+001 
2358569866.875  -4.140851e+000  1.098283e+001 
2358740361.25  -4.143264e+000  1.091329e+001 
2358910855.625  -4.142972e+000  1.082025e+001 
2359081350  -4.141556e+000  1.073373e+001 
2359251844.375  -4.143684e+000  1.061961e+001 
2359422338.75  -4.149367e+000  1.053628e+001 
2359592833.125  -4.156391e+000  1.040599e+001 
2359763327.5  -4.156724e+000  1.037018e+001 
2359933821.875  -4.165703e+000  1.022903e+001 
2360104316.25  -4.170690e+000  1.014450e+001 
2360274810.625  -4.171685e+000  1.004224e+001 
2360445305  -4.175004e+000  9.932158e+000 
2360615799.375  -4.178638e+000  9.820696e+000 
2360786293.75  -4.188181e+000  9.659284e+000 
2360956788.125  -4.191771e+000  9.563745e+000 
2361127282.5  -4.198154e+000  9.436134e+000 
2361297776.875  -4.201632e+000  9.318955e+000 
2361468271.25  -4.213744e+000  9.199144e+000 
2361638765.625  -4.212495e+000  9.078537e+000 
2361809260  -4.222806e+000  8.916272e+000 
2361979754.375  -4.228879e+000  8.779311e+000 
2362150248.75  -4.232955e+000  8.691048e+000 
2362320743.125  -4.246688e+000  8.531150e+000 
2362491237.5  -4.259446e+000  8.368457e+000 
2362661731.875  -4.262901e+000  8.281273e+000 
2362832226.25  -4.279675e+000  8.073989e+000 
2363002720.625  -4.286106e+000  8.027044e+000 
2363173215  -4.294168e+000  7.875705e+000 
2363343709.375  -4.304398e+000  7.722916e+000 
2363514203.75  -4.318067e+000  7.572995e+000 
2363684698.125  -4.324750e+000  7.478370e+000 
2363855192.5  -4.340775e+000  7.284935e+000 
2364025686.875  -4.353357e+000  7.183523e+000 
