!Agilent Technologies,N5230A,MY46400454,A.06.04.21
!Agilent N5230A: A.06.04.21
!Date: Sunday, October 28, 2018 12:15:16
!Correction: S11(Full 1 Port(1)) 
!S1P File: Measurement: S11:
# Hz S  dB   R 50
2290883600  -1.707383e+000  2.783743e+001 
2291054094.375  -1.709910e+000  2.774496e+001 
2291224588.75  -1.718190e+000  2.768130e+001 
2291395083.125  -1.719713e+000  2.765085e+001 
2291565577.5  -1.726437e+000  2.757347e+001 
2291736071.875  -1.727191e+000  2.752173e+001 
2291906566.25  -1.733822e+000  2.746268e+001 
2292077060.625  -1.738708e+000  2.737134e+001 
2292247555  -1.738905e+000  2.731385e+001 
2292418049.375  -1.746292e+000  2.726483e+001 
2292588543.75  -1.747747e+000  2.717005e+001 
2292759038.125  -1.751356e+000  2.710112e+001 
2292929532.5  -1.759354e+000  2.706272e+001 
2293100026.875  -1.760483e+000  2.700836e+001 
2293270521.25  -1.771963e+000  2.693591e+001 
2293441015.625  -1.772991e+000  2.686393e+001 
2293611510  -1.775560e+000  2.681980e+001 
2293782004.375  -1.778809e+000  2.674325e+001 
2293952498.75  -1.784305e+000  2.666729e+001 
2294122993.125  -1.785731e+000  2.663107e+001 
2294293487.5  -1.793219e+000  2.655343e+001 
2294463981.875  -1.792566e+000  2.651133e+001 
2294634476.25  -1.801358e+000  2.645508e+001 
2294804970.625  -1.801980e+000  2.639811e+001 
2294975465  -1.805910e+000  2.633793e+001 
2295145959.375  -1.813082e+000  2.629863e+001 
2295316453.75  -1.816762e+000  2.624457e+001 
2295486948.125  -1.818107e+000  2.617482e+001 
2295657442.5  -1.818529e+000  2.611660e+001 
2295827936.875  -1.827517e+000  2.600492e+001 
2295998431.25  -1.826555e+000  2.597306e+001 
2296168925.625  -1.832328e+000  2.587716e+001 
2296339420  -1.839040e+000  2.581933e+001 
2296509914.375  -1.836955e+000  2.575110e+001 
2296680408.75  -1.844241e+000  2.569300e+001 
2296850903.125  -1.846004e+000  2.564615e+001 
2297021397.5  -1.850322e+000  2.558428e+001 
2297191891.875  -1.854272e+000  2.548743e+001 
2297362386.25  -1.854965e+000  2.542901e+001 
2297532880.625  -1.858786e+000  2.536284e+001 
2297703375  -1.867158e+000  2.532169e+001 
2297873869.375  -1.870684e+000  2.522521e+001 
2298044363.75  -1.871714e+000  2.518772e+001 
2298214858.125  -1.876512e+000  2.514211e+001 
2298385352.5  -1.876226e+000  2.504335e+001 
2298555846.875  -1.881507e+000  2.499197e+001 
2298726341.25  -1.885174e+000  2.489468e+001 
2298896835.625  -1.888698e+000  2.482141e+001 
2299067330  -1.893977e+000  2.476247e+001 
2299237824.375  -1.897199e+000  2.470179e+001 
2299408318.75  -1.898653e+000  2.461072e+001 
2299578813.125  -1.905465e+000  2.456396e+001 
2299749307.5  -1.912946e+000  2.447115e+001 
2299919801.875  -1.918366e+000  2.441977e+001 
2300090296.25  -1.915844e+000  2.433421e+001 
2300260790.625  -1.916697e+000  2.427175e+001 
2300431285  -1.921370e+000  2.419617e+001 
2300601779.375  -1.923362e+000  2.415473e+001 
2300772273.75  -1.931942e+000  2.404610e+001 
2300942768.125  -1.934642e+000  2.400332e+001 
2301113262.5  -1.937879e+000  2.389515e+001 
2301283756.875  -1.943024e+000  2.384419e+001 
2301454251.25  -1.950696e+000  2.378365e+001 
2301624745.625  -1.948634e+000  2.370801e+001 
2301795240  -1.958451e+000  2.360266e+001 
2301965734.375  -1.959688e+000  2.357448e+001 
2302136228.75  -1.961967e+000  2.350902e+001 
2302306723.125  -1.969708e+000  2.341178e+001 
2302477217.5  -1.971449e+000  2.337212e+001 
2302647711.875  -1.975735e+000  2.328905e+001 
2302818206.25  -1.978023e+000  2.320230e+001 
2302988700.625  -1.981884e+000  2.313719e+001 
2303159195  -1.990090e+000  2.306791e+001 
2303329689.375  -1.990746e+000  2.301364e+001 
2303500183.75  -1.990044e+000  2.293471e+001 
2303670678.125  -1.996619e+000  2.288399e+001 
2303841172.5  -2.000134e+000  2.282653e+001 
2304011666.875  -2.001635e+000  2.274846e+001 
2304182161.25  -2.006674e+000  2.259380e+001 
2304352655.625  -2.012609e+000  2.258499e+001 
2304523150  -2.014756e+000  2.250509e+001 
2304693644.375  -2.021087e+000  2.241993e+001 
2304864138.75  -2.024904e+000  2.234409e+001 
2305034633.125  -2.029962e+000  2.222179e+001 
2305205127.5  -2.031480e+000  2.219053e+001 
2305375621.875  -2.037390e+000  2.212015e+001 
2305546116.25  -2.044874e+000  2.202022e+001 
2305716610.625  -2.047954e+000  2.200719e+001 
2305887105  -2.051244e+000  2.191894e+001 
2306057599.375  -2.060812e+000  2.180711e+001 
2306228093.75  -2.060292e+000  2.177148e+001 
2306398588.125  -2.066479e+000  2.169715e+001 
2306569082.5  -2.068578e+000  2.162977e+001 
2306739576.875  -2.074364e+000  2.148642e+001 
2306910071.25  -2.079221e+000  2.140186e+001 
2307080565.625  -2.086962e+000  2.135330e+001 
2307251060  -2.090539e+000  2.129669e+001 
2307421554.375  -2.093363e+000  2.118422e+001 
2307592048.75  -2.102312e+000  2.109915e+001 
2307762543.125  -2.108848e+000  2.101143e+001 
2307933037.5  -2.111621e+000  2.093197e+001 
2308103531.875  -2.118374e+000  2.084855e+001 
2308274026.25  -2.125363e+000  2.075813e+001 
2308444520.625  -2.134849e+000  2.069263e+001 
2308615015  -2.137100e+000  2.057961e+001 
2308785509.375  -2.142689e+000  2.053483e+001 
2308956003.75  -2.155853e+000  2.039754e+001 
2309126498.125  -2.163229e+000  2.033044e+001 
2309296992.5  -2.171661e+000  2.028705e+001 
2309467486.875  -2.179866e+000  2.021524e+001 
2309637981.25  -2.182105e+000  2.013631e+001 
2309808475.625  -2.193884e+000  2.003006e+001 
2309978970  -2.200939e+000  1.996288e+001 
2310149464.375  -2.207414e+000  1.985864e+001 
2310319958.75  -2.214502e+000  1.977449e+001 
2310490453.125  -2.230130e+000  1.976020e+001 
2310660947.5  -2.234411e+000  1.964862e+001 
2310831441.875  -2.245367e+000  1.958533e+001 
2311001936.25  -2.253433e+000  1.953180e+001 
2311172430.625  -2.263123e+000  1.947274e+001 
2311342925  -2.264062e+000  1.938697e+001 
2311513419.375  -2.276547e+000  1.936250e+001 
2311683913.75  -2.283986e+000  1.929243e+001 
2311854408.125  -2.290737e+000  1.924608e+001 
2312024902.5  -2.296328e+000  1.914107e+001 
2312195396.875  -2.307498e+000  1.908297e+001 
2312365891.25  -2.313944e+000  1.900034e+001 
2312536385.625  -2.318583e+000  1.897686e+001 
2312706880  -2.325850e+000  1.888771e+001 
2312877374.375  -2.336881e+000  1.883544e+001 
2313047868.75  -2.341108e+000  1.875667e+001 
2313218363.125  -2.357401e+000  1.868993e+001 
2313388857.5  -2.360612e+000  1.862958e+001 
2313559351.875  -2.365386e+000  1.859213e+001 
2313729846.25  -2.377928e+000  1.848335e+001 
2313900340.625  -2.379146e+000  1.845510e+001 
2314070835  -2.394723e+000  1.834273e+001 
2314241329.375  -2.399498e+000  1.837419e+001 
2314411823.75  -2.406397e+000  1.827539e+001 
2314582318.125  -2.413588e+000  1.821680e+001 
2314752812.5  -2.418290e+000  1.817606e+001 
2314923306.875  -2.428361e+000  1.810041e+001 
2315093801.25  -2.440449e+000  1.805066e+001 
2315264295.625  -2.440815e+000  1.795823e+001 
2315434790  -2.448330e+000  1.789139e+001 
2315605284.375  -2.462143e+000  1.782584e+001 
2315775778.75  -2.471574e+000  1.773982e+001 
2315946273.125  -2.479817e+000  1.770831e+001 
2316116767.5  -2.482193e+000  1.764975e+001 
2316287261.875  -2.494539e+000  1.759732e+001 
2316457756.25  -2.500752e+000  1.751991e+001 
2316628250.625  -2.509876e+000  1.746480e+001 
2316798745  -2.516661e+000  1.742265e+001 
2316969239.375  -2.525522e+000  1.736133e+001 
2317139733.75  -2.531981e+000  1.731752e+001 
2317310228.125  -2.533156e+000  1.725808e+001 
2317480722.5  -2.546850e+000  1.716486e+001 
2317651216.875  -2.552258e+000  1.715368e+001 
2317821711.25  -2.559654e+000  1.706251e+001 
2317992205.625  -2.566088e+000  1.703415e+001 
2318162700  -2.575333e+000  1.697721e+001 
2318333194.375  -2.577847e+000  1.689945e+001 
2318503688.75  -2.580463e+000  1.685279e+001 
2318674183.125  -2.590562e+000  1.678405e+001 
2318844677.5  -2.602568e+000  1.678638e+001 
2319015171.875  -2.600881e+000  1.670157e+001 
2319185666.25  -2.614543e+000  1.659728e+001 
2319356160.625  -2.615024e+000  1.654901e+001 
2319526655  -2.623657e+000  1.649826e+001 
2319697149.375  -2.629231e+000  1.645239e+001 
2319867643.75  -2.635025e+000  1.636698e+001 
2320038138.125  -2.640417e+000  1.632719e+001 
2320208632.5  -2.649348e+000  1.625500e+001 
2320379126.875  -2.657954e+000  1.619338e+001 
2320549621.25  -2.663704e+000  1.617190e+001 
2320720115.625  -2.670070e+000  1.605187e+001 
2320890610  -2.678413e+000  1.600259e+001 
2321061104.375  -2.684162e+000  1.593860e+001 
2321231598.75  -2.688800e+000  1.587062e+001 
2321402093.125  -2.697558e+000  1.584334e+001 
2321572587.5  -2.707652e+000  1.575485e+001 
2321743081.875  -2.714571e+000  1.569952e+001 
2321913576.25  -2.719170e+000  1.562303e+001 
2322084070.625  -2.726843e+000  1.559132e+001 
2322254565  -2.737260e+000  1.550607e+001 
2322425059.375  -2.739671e+000  1.547676e+001 
2322595553.75  -2.747421e+000  1.540709e+001 
2322766048.125  -2.756048e+000  1.534783e+001 
2322936542.5  -2.769382e+000  1.525486e+001 
2323107036.875  -2.772220e+000  1.525171e+001 
2323277531.25  -2.778949e+000  1.516934e+001 
2323448025.625  -2.786768e+000  1.517671e+001 
2323618520  -2.797473e+000  1.505806e+001 
2323789014.375  -2.799906e+000  1.503778e+001 
2323959508.75  -2.807778e+000  1.495104e+001 
2324130003.125  -2.819344e+000  1.487038e+001 
2324300497.5  -2.827378e+000  1.483911e+001 
2324470991.875  -2.830772e+000  1.475943e+001 
2324641486.25  -2.840212e+000  1.472265e+001 
2324811980.625  -2.845198e+000  1.469174e+001 
2324982475  -2.847462e+000  1.461390e+001 
2325152969.375  -2.858403e+000  1.455615e+001 
2325323463.75  -2.870290e+000  1.450139e+001 
2325493958.125  -2.875663e+000  1.443816e+001 
2325664452.5  -2.883662e+000  1.439475e+001 
2325834946.875  -2.893197e+000  1.433666e+001 
2326005441.25  -2.896273e+000  1.429339e+001 
2326175935.625  -2.904335e+000  1.417433e+001 
2326346430  -2.912521e+000  1.418952e+001 
2326516924.375  -2.918992e+000  1.409800e+001 
2326687418.75  -2.924074e+000  1.399235e+001 
2326857913.125  -2.938545e+000  1.397872e+001 
2327028407.5  -2.936753e+000  1.395122e+001 
2327198901.875  -2.949437e+000  1.386994e+001 
2327369396.25  -2.955492e+000  1.381079e+001 
2327539890.625  -2.961244e+000  1.379440e+001 
2327710385  -2.964245e+000  1.370477e+001 
2327880879.375  -2.972090e+000  1.367407e+001 
2328051373.75  -2.975714e+000  1.362023e+001 
2328221868.125  -2.988117e+000  1.351073e+001 
2328392362.5  -2.992209e+000  1.349139e+001 
2328562856.875  -3.001611e+000  1.338378e+001 
2328733351.25  -3.004397e+000  1.335282e+001 
2328903845.625  -3.010324e+000  1.329008e+001 
2329074340  -3.018914e+000  1.321916e+001 
2329244834.375  -3.026145e+000  1.319467e+001 
2329415328.75  -3.028939e+000  1.309766e+001 
2329585823.125  -3.043873e+000  1.304717e+001 
2329756317.5  -3.041991e+000  1.299066e+001 
2329926811.875  -3.051835e+000  1.291131e+001 
2330097306.25  -3.059247e+000  1.285753e+001 
2330267800.625  -3.062989e+000  1.277021e+001 
2330438295  -3.071922e+000  1.270195e+001 
2330608789.375  -3.076349e+000  1.266008e+001 
2330779283.75  -3.085747e+000  1.262162e+001 
2330949778.125  -3.089012e+000  1.252812e+001 
2331120272.5  -3.093360e+000  1.248504e+001 
2331290766.875  -3.099872e+000  1.239261e+001 
2331461261.25  -3.108451e+000  1.229515e+001 
2331631755.625  -3.107774e+000  1.225612e+001 
2331802250  -3.117758e+000  1.218044e+001 
2331972744.375  -3.123696e+000  1.211002e+001 
2332143238.75  -3.126786e+000  1.205540e+001 
2332313733.125  -3.133789e+000  1.200850e+001 
2332484227.5  -3.137832e+000  1.190242e+001 
2332654721.875  -3.143427e+000  1.185211e+001 
2332825216.25  -3.150068e+000  1.176814e+001 
2332995710.625  -3.159078e+000  1.167779e+001 
2333166205  -3.160449e+000  1.161493e+001 
2333336699.375  -3.163646e+000  1.153091e+001 
2333507193.75  -3.168523e+000  1.144296e+001 
2333677688.125  -3.180326e+000  1.133789e+001 
2333848182.5  -3.179193e+000  1.125724e+001 
2334018676.875  -3.188624e+000  1.118783e+001 
2334189171.25  -3.194340e+000  1.113158e+001 
2334359665.625  -3.201610e+000  1.100670e+001 
2334530160  -3.207478e+000  1.090976e+001 
2334700654.375  -3.213850e+000  1.083033e+001 
2334871148.75  -3.229167e+000  1.075049e+001 
2335041643.125  -3.230510e+000  1.068520e+001 
2335212137.5  -3.238096e+000  1.057862e+001 
2335382631.875  -3.246157e+000  1.044107e+001 
2335553126.25  -3.249317e+000  1.037695e+001 
2335723620.625  -3.262632e+000  1.029116e+001 
2335894115  -3.271649e+000  1.020376e+001 
2336064609.375  -3.274675e+000  1.007167e+001 
2336235103.75  -3.290478e+000  9.997981e+000 
2336405598.125  -3.301456e+000  9.917403e+000 
2336576092.5  -3.308748e+000  9.823206e+000 
2336746586.875  -3.311203e+000  9.738155e+000 
2336917081.25  -3.332529e+000  9.623146e+000 
2337087575.625  -3.338266e+000  9.511961e+000 
2337258070  -3.348964e+000  9.448450e+000 
2337428564.375  -3.359393e+000  9.379752e+000 
2337599058.75  -3.376820e+000  9.278973e+000 
2337769553.125  -3.390332e+000  9.171682e+000 
2337940047.5  -3.398988e+000  9.061244e+000 
2338110541.875  -3.412603e+000  8.981844e+000 
2338281036.25  -3.423301e+000  8.841843e+000 
2338451530.625  -3.441201e+000  8.816410e+000 
2338622025  -3.447276e+000  8.729678e+000 
2338792519.375  -3.467298e+000  8.625753e+000 
2338963013.75  -3.476341e+000  8.598109e+000 
2339133508.125  -3.494167e+000  8.477327e+000 
2339304002.5  -3.507377e+000  8.438416e+000 
2339474496.875  -3.515319e+000  8.342880e+000 
2339644991.25  -3.528979e+000  8.315046e+000 
2339815485.625  -3.543173e+000  8.180683e+000 
2339985980  -3.552289e+000  8.175879e+000 
2340156474.375  -3.571281e+000  8.073648e+000 
2340326968.75  -3.585346e+000  8.005087e+000 
2340497463.125  -3.602821e+000  7.884490e+000 
2340667957.5  -3.611120e+000  7.813684e+000 
2340838451.875  -3.628726e+000  7.766304e+000 
2341008946.25  -3.642592e+000  7.694666e+000 
2341179440.625  -3.658172e+000  7.613174e+000 
2341349935  -3.676868e+000  7.551123e+000 
2341520429.375  -3.685036e+000  7.473160e+000 
2341690923.75  -3.704494e+000  7.476500e+000 
2341861418.125  -3.713763e+000  7.393462e+000 
2342031912.5  -3.736084e+000  7.340680e+000 
2342202406.875  -3.745311e+000  7.280619e+000 
2342372901.25  -3.763003e+000  7.244095e+000 
2342543395.625  -3.776026e+000  7.148492e+000 
2342713890  -3.793611e+000  7.102647e+000 
2342884384.375  -3.809164e+000  7.085833e+000 
2343054878.75  -3.823813e+000  6.986017e+000 
2343225373.125  -3.839401e+000  6.936492e+000 
2343395867.5  -3.853122e+000  6.909111e+000 
2343566361.875  -3.864807e+000  6.892937e+000 
2343736856.25  -3.882815e+000  6.842006e+000 
2343907350.625  -3.894962e+000  6.821283e+000 
2344077845  -3.908679e+000  6.780886e+000 
2344248339.375  -3.926281e+000  6.736723e+000 
2344418833.75  -3.941221e+000  6.731336e+000 
2344589328.125  -3.950460e+000  6.688048e+000 
2344759822.5  -3.966803e+000  6.678112e+000 
2344930316.875  -3.978299e+000  6.586662e+000 
2345100811.25  -3.988232e+000  6.581095e+000 
2345271305.625  -4.006490e+000  6.531474e+000 
2345441800  -4.017868e+000  6.500491e+000 
2345612294.375  -4.027617e+000  6.451577e+000 
2345782788.75  -4.038800e+000  6.446018e+000 
2345953283.125  -4.053893e+000  6.395080e+000 
2346123777.5  -4.059881e+000  6.351457e+000 
2346294271.875  -4.080244e+000  6.375474e+000 
2346464766.25  -4.092054e+000  6.317738e+000 
2346635260.625  -4.104897e+000  6.291113e+000 
2346805755  -4.111126e+000  6.286586e+000 
2346976249.375  -4.124140e+000  6.262093e+000 
2347146743.75  -4.140136e+000  6.242751e+000 
2347317238.125  -4.145665e+000  6.216965e+000 
2347487732.5  -4.161994e+000  6.187235e+000 
2347658226.875  -4.167753e+000  6.156261e+000 
2347828721.25  -4.175918e+000  6.148520e+000 
2347999215.625  -4.189387e+000  6.114904e+000 
2348169710  -4.206977e+000  6.040059e+000 
2348340204.375  -4.216104e+000  6.087208e+000 
2348510698.75  -4.226860e+000  6.071167e+000 
2348681193.125  -4.234571e+000  6.046238e+000 
2348851687.5  -4.249308e+000  6.052207e+000 
2349022181.875  -4.254966e+000  6.005473e+000 
2349192676.25  -4.270793e+000  5.999879e+000 
2349363170.625  -4.279980e+000  5.988719e+000 
2349533665  -4.286916e+000  5.975284e+000 
2349704159.375  -4.299569e+000  5.921743e+000 
2349874653.75  -4.306209e+000  5.895214e+000 
2350045148.125  -4.315856e+000  5.951542e+000 
2350215642.5  -4.323651e+000  5.895656e+000 
2350386136.875  -4.330386e+000  5.833637e+000 
2350556631.25  -4.336782e+000  5.848645e+000 
2350727125.625  -4.346247e+000  5.893692e+000 
2350897620  -4.357041e+000  5.860511e+000 
2351068114.375  -4.360468e+000  5.782942e+000 
2351238608.75  -4.369628e+000  5.744052e+000 
2351409103.125  -4.376172e+000  5.764445e+000 
2351579597.5  -4.381374e+000  5.734719e+000 
2351750091.875  -4.381644e+000  5.742495e+000 
2351920586.25  -4.391310e+000  5.717622e+000 
2352091080.625  -4.396023e+000  5.737236e+000 
2352261575  -4.398442e+000  5.635457e+000 
2352432069.375  -4.407429e+000  5.632083e+000 
2352602563.75  -4.412537e+000  5.602630e+000 
2352773058.125  -4.412886e+000  5.575181e+000 
2352943552.5  -4.417151e+000  5.549459e+000 
2353114046.875  -4.424867e+000  5.470770e+000 
2353284541.25  -4.427588e+000  5.462243e+000 
2353455035.625  -4.430283e+000  5.459940e+000 
2353625530  -4.439987e+000  5.406956e+000 
2353796024.375  -4.444360e+000  5.342627e+000 
2353966518.75  -4.441868e+000  5.370501e+000 
2354137013.125  -4.447986e+000  5.289859e+000 
2354307507.5  -4.454313e+000  5.263126e+000 
2354478001.875  -4.457810e+000  5.208416e+000 
2354648496.25  -4.459042e+000  5.158514e+000 
2354818990.625  -4.462514e+000  5.142656e+000 
2354989485  -4.460521e+000  5.083029e+000 
2355159979.375  -4.466379e+000  5.044017e+000 
2355330473.75  -4.467258e+000  4.967155e+000 
2355500968.125  -4.469951e+000  4.921649e+000 
2355671462.5  -4.472144e+000  4.880062e+000 
2355841956.875  -4.479291e+000  4.823728e+000 
2356012451.25  -4.476887e+000  4.770200e+000 
2356182945.625  -4.481712e+000  4.703308e+000 
2356353440  -4.478250e+000  4.647235e+000 
2356523934.375  -4.485020e+000  4.634397e+000 
2356694428.75  -4.486748e+000  4.523419e+000 
2356864923.125  -4.486856e+000  4.472586e+000 
2357035417.5  -4.489096e+000  4.378970e+000 
2357205911.875  -4.493630e+000  4.301611e+000 
2357376406.25  -4.497159e+000  4.250731e+000 
2357546900.625  -4.495018e+000  4.234144e+000 
2357717395  -4.500195e+000  4.076460e+000 
2357887889.375  -4.498600e+000  4.053554e+000 
2358058383.75  -4.510528e+000  3.913615e+000 
2358228878.125  -4.500986e+000  3.853160e+000 
2358399372.5  -4.504606e+000  3.753087e+000 
2358569866.875  -4.508014e+000  3.679835e+000 
2358740361.25  -4.515963e+000  3.550206e+000 
2358910855.625  -4.518131e+000  3.453987e+000 
2359081350  -4.519225e+000  3.421408e+000 
2359251844.375  -4.528126e+000  3.294568e+000 
2359422338.75  -4.523245e+000  3.223437e+000 
2359592833.125  -4.531869e+000  3.090255e+000 
2359763327.5  -4.535068e+000  2.980433e+000 
2359933821.875  -4.539927e+000  2.896530e+000 
2360104316.25  -4.539848e+000  2.769005e+000 
2360274810.625  -4.545521e+000  2.657509e+000 
2360445305  -4.554295e+000  2.591524e+000 
2360615799.375  -4.560639e+000  2.385740e+000 
2360786293.75  -4.562827e+000  2.323185e+000 
2360956788.125  -4.573483e+000  2.179301e+000 
2361127282.5  -4.575963e+000  2.052813e+000 
2361297776.875  -4.580111e+000  1.960966e+000 
2361468271.25  -4.584377e+000  1.833955e+000 
2361638765.625  -4.587932e+000  1.728895e+000 
2361809260  -4.600854e+000  1.560291e+000 
2361979754.375  -4.607946e+000  1.443974e+000 
2362150248.75  -4.617036e+000  1.291664e+000 
2362320743.125  -4.623419e+000  1.149633e+000 
2362491237.5  -4.628510e+000  1.038294e+000 
2362661731.875  -4.640323e+000  9.364761e-001 
2362832226.25  -4.647473e+000  7.512878e-001 
2363002720.625  -4.659474e+000  6.244397e-001 
2363173215  -4.672771e+000  4.992272e-001 
2363343709.375  -4.680349e+000  3.510443e-001 
2363514203.75  -4.689551e+000  2.058174e-001 
2363684698.125  -4.705530e+000  7.952777e-002 
2363855192.5  -4.715631e+000  -6.490546e-002 
2364025686.875  -4.721510e+000  -1.944615e-001 
