!Agilent Technologies,N5230A,MY46400454,A.06.04.21
!Agilent N5230A: A.06.04.21
!Date: Sunday, October 28, 2018 12:15:40
!Correction: S11(Full 1 Port(1)) 
!S1P File: Measurement: S11:
# Hz S  dB   R 50
2290883600  -1.378363e+000  3.461982e+001 
2291054094.375  -1.381878e+000  3.451350e+001 
2291224588.75  -1.382241e+000  3.446217e+001 
2291395083.125  -1.391589e+000  3.439690e+001 
2291565577.5  -1.393577e+000  3.434010e+001 
2291736071.875  -1.399388e+000  3.430029e+001 
2291906566.25  -1.400241e+000  3.420400e+001 
2292077060.625  -1.403290e+000  3.413356e+001 
2292247555  -1.405122e+000  3.406021e+001 
2292418049.375  -1.408511e+000  3.402126e+001 
2292588543.75  -1.413051e+000  3.392852e+001 
2292759038.125  -1.419160e+000  3.384740e+001 
2292929532.5  -1.420777e+000  3.377346e+001 
2293100026.875  -1.423913e+000  3.375467e+001 
2293270521.25  -1.425425e+000  3.362741e+001 
2293441015.625  -1.433142e+000  3.359504e+001 
2293611510  -1.438933e+000  3.351365e+001 
2293782004.375  -1.435023e+000  3.344987e+001 
2293952498.75  -1.444430e+000  3.341795e+001 
2294122993.125  -1.451192e+000  3.333485e+001 
2294293487.5  -1.456504e+000  3.328236e+001 
2294463981.875  -1.454715e+000  3.318721e+001 
2294634476.25  -1.458489e+000  3.314731e+001 
2294804970.625  -1.463850e+000  3.307184e+001 
2294975465  -1.465906e+000  3.302774e+001 
2295145959.375  -1.468519e+000  3.294823e+001 
2295316453.75  -1.474017e+000  3.289095e+001 
2295486948.125  -1.473953e+000  3.280001e+001 
2295657442.5  -1.481677e+000  3.275105e+001 
2295827936.875  -1.482138e+000  3.266598e+001 
2295998431.25  -1.487133e+000  3.257282e+001 
2296168925.625  -1.490527e+000  3.250251e+001 
2296339420  -1.495321e+000  3.246806e+001 
2296509914.375  -1.498031e+000  3.240013e+001 
2296680408.75  -1.499090e+000  3.229186e+001 
2296850903.125  -1.504991e+000  3.228163e+001 
2297021397.5  -1.509931e+000  3.217477e+001 
2297191891.875  -1.513675e+000  3.212129e+001 
2297362386.25  -1.515725e+000  3.205321e+001 
2297532880.625  -1.523148e+000  3.199440e+001 
2297703375  -1.525922e+000  3.190853e+001 
2297873869.375  -1.527445e+000  3.185077e+001 
2298044363.75  -1.528824e+000  3.177868e+001 
2298214858.125  -1.534313e+000  3.172240e+001 
2298385352.5  -1.537196e+000  3.163396e+001 
2298555846.875  -1.541928e+000  3.160083e+001 
2298726341.25  -1.544321e+000  3.152020e+001 
2298896835.625  -1.547611e+000  3.140554e+001 
2299067330  -1.550567e+000  3.137204e+001 
2299237824.375  -1.558663e+000  3.130653e+001 
2299408318.75  -1.561962e+000  3.120171e+001 
2299578813.125  -1.561377e+000  3.118538e+001 
2299749307.5  -1.569404e+000  3.109807e+001 
2299919801.875  -1.571741e+000  3.102055e+001 
2300090296.25  -1.574976e+000  3.096574e+001 
2300260790.625  -1.579973e+000  3.090043e+001 
2300431285  -1.587328e+000  3.081020e+001 
2300601779.375  -1.587122e+000  3.074404e+001 
2300772273.75  -1.586901e+000  3.067902e+001 
2300942768.125  -1.593135e+000  3.056150e+001 
2301113262.5  -1.601686e+000  3.052613e+001 
2301283756.875  -1.604750e+000  3.045333e+001 
2301454251.25  -1.606550e+000  3.037730e+001 
2301624745.625  -1.610328e+000  3.029448e+001 
2301795240  -1.615998e+000  3.024701e+001 
2301965734.375  -1.618567e+000  3.014964e+001 
2302136228.75  -1.624860e+000  3.007863e+001 
2302306723.125  -1.625609e+000  3.003869e+001 
2302477217.5  -1.628865e+000  2.993830e+001 
2302647711.875  -1.635541e+000  2.988646e+001 
2302818206.25  -1.640202e+000  2.980116e+001 
2302988700.625  -1.641662e+000  2.976659e+001 
2303159195  -1.647077e+000  2.969224e+001 
2303329689.375  -1.647012e+000  2.958165e+001 
2303500183.75  -1.652200e+000  2.952933e+001 
2303670678.125  -1.656432e+000  2.948169e+001 
2303841172.5  -1.660775e+000  2.938831e+001 
2304011666.875  -1.664020e+000  2.932907e+001 
2304182161.25  -1.670515e+000  2.922264e+001 
2304352655.625  -1.675195e+000  2.918713e+001 
2304523150  -1.674631e+000  2.911908e+001 
2304693644.375  -1.678352e+000  2.902095e+001 
2304864138.75  -1.683465e+000  2.897413e+001 
2305034633.125  -1.687330e+000  2.889778e+001 
2305205127.5  -1.693426e+000  2.884551e+001 
2305375621.875  -1.701005e+000  2.877881e+001 
2305546116.25  -1.701024e+000  2.867433e+001 
2305716610.625  -1.707306e+000  2.861891e+001 
2305887105  -1.706150e+000  2.852576e+001 
2306057599.375  -1.719584e+000  2.846313e+001 
2306228093.75  -1.720318e+000  2.838341e+001 
2306398588.125  -1.724718e+000  2.833513e+001 
2306569082.5  -1.729418e+000  2.825387e+001 
2306739576.875  -1.730647e+000  2.817077e+001 
2306910071.25  -1.735968e+000  2.808903e+001 
2307080565.625  -1.740911e+000  2.803158e+001 
2307251060  -1.742279e+000  2.792375e+001 
2307421554.375  -1.747024e+000  2.781347e+001 
2307592048.75  -1.753909e+000  2.776316e+001 
2307762543.125  -1.758647e+000  2.767273e+001 
2307933037.5  -1.761053e+000  2.763710e+001 
2308103531.875  -1.766752e+000  2.748843e+001 
2308274026.25  -1.774771e+000  2.740734e+001 
2308444520.625  -1.772986e+000  2.731733e+001 
2308615015  -1.781438e+000  2.723561e+001 
2308785509.375  -1.789077e+000  2.716614e+001 
2308956003.75  -1.791952e+000  2.706686e+001 
2309126498.125  -1.800637e+000  2.700116e+001 
2309296992.5  -1.808358e+000  2.689664e+001 
2309467486.875  -1.816040e+000  2.682331e+001 
2309637981.25  -1.820448e+000  2.673866e+001 
2309808475.625  -1.830662e+000  2.662247e+001 
2309978970  -1.837153e+000  2.655535e+001 
2310149464.375  -1.845570e+000  2.646231e+001 
2310319958.75  -1.856567e+000  2.639847e+001 
2310490453.125  -1.862363e+000  2.633625e+001 
2310660947.5  -1.870541e+000  2.625057e+001 
2310831441.875  -1.879695e+000  2.619823e+001 
2311001936.25  -1.889433e+000  2.609849e+001 
2311172430.625  -1.892653e+000  2.603097e+001 
2311342925  -1.902028e+000  2.596125e+001 
2311513419.375  -1.907275e+000  2.585554e+001 
2311683913.75  -1.912781e+000  2.579738e+001 
2311854408.125  -1.923345e+000  2.573430e+001 
2312024902.5  -1.932175e+000  2.565497e+001 
2312195396.875  -1.939326e+000  2.558169e+001 
2312365891.25  -1.945163e+000  2.554317e+001 
2312536385.625  -1.956903e+000  2.548755e+001 
2312706880  -1.967666e+000  2.540252e+001 
2312877374.375  -1.974137e+000  2.535626e+001 
2313047868.75  -1.980226e+000  2.524065e+001 
2313218363.125  -1.990880e+000  2.518828e+001 
2313388857.5  -1.998322e+000  2.510905e+001 
2313559351.875  -2.004988e+000  2.503019e+001 
2313729846.25  -2.015040e+000  2.501269e+001 
2313900340.625  -2.021719e+000  2.491743e+001 
2314070835  -2.026843e+000  2.486744e+001 
2314241329.375  -2.038577e+000  2.479472e+001 
2314411823.75  -2.046109e+000  2.474743e+001 
2314582318.125  -2.054811e+000  2.468063e+001 
2314752812.5  -2.063529e+000  2.464116e+001 
2314923306.875  -2.068454e+000  2.453979e+001 
2315093801.25  -2.074459e+000  2.445852e+001 
2315264295.625  -2.087554e+000  2.442438e+001 
2315434790  -2.096787e+000  2.437100e+001 
2315605284.375  -2.101412e+000  2.429737e+001 
2315775778.75  -2.115262e+000  2.422055e+001 
2315946273.125  -2.119750e+000  2.415841e+001 
2316116767.5  -2.130083e+000  2.413047e+001 
2316287261.875  -2.137640e+000  2.409435e+001 
2316457756.25  -2.143931e+000  2.404164e+001 
2316628250.625  -2.152382e+000  2.395859e+001 
2316798745  -2.159883e+000  2.388802e+001 
2316969239.375  -2.168339e+000  2.383262e+001 
2317139733.75  -2.174041e+000  2.377256e+001 
2317310228.125  -2.181273e+000  2.372931e+001 
2317480722.5  -2.186817e+000  2.366175e+001 
2317651216.875  -2.196584e+000  2.359790e+001 
2317821711.25  -2.199986e+000  2.353090e+001 
2317992205.625  -2.209977e+000  2.350223e+001 
2318162700  -2.213187e+000  2.345976e+001 
2318333194.375  -2.225324e+000  2.337967e+001 
2318503688.75  -2.230071e+000  2.333191e+001 
2318674183.125  -2.239017e+000  2.326240e+001 
2318844677.5  -2.244915e+000  2.320426e+001 
2319015171.875  -2.249272e+000  2.314233e+001 
2319185666.25  -2.256442e+000  2.306351e+001 
2319356160.625  -2.265355e+000  2.305883e+001 
2319526655  -2.268413e+000  2.292163e+001 
2319697149.375  -2.279845e+000  2.289520e+001 
2319867643.75  -2.284133e+000  2.284968e+001 
2320038138.125  -2.296261e+000  2.274768e+001 
2320208632.5  -2.297879e+000  2.269588e+001 
2320379126.875  -2.308641e+000  2.265614e+001 
2320549621.25  -2.317662e+000  2.257515e+001 
2320720115.625  -2.319534e+000  2.253123e+001 
2320890610  -2.332943e+000  2.245478e+001 
2321061104.375  -2.340043e+000  2.241717e+001 
2321231598.75  -2.347318e+000  2.232728e+001 
2321402093.125  -2.352916e+000  2.228183e+001 
2321572587.5  -2.359259e+000  2.220604e+001 
2321743081.875  -2.366587e+000  2.218885e+001 
2321913576.25  -2.375530e+000  2.210684e+001 
2322084070.625  -2.384370e+000  2.199855e+001 
2322254565  -2.394382e+000  2.199822e+001 
2322425059.375  -2.402759e+000  2.191369e+001 
2322595553.75  -2.404363e+000  2.189145e+001 
2322766048.125  -2.414881e+000  2.183434e+001 
2322936542.5  -2.426776e+000  2.177883e+001 
2323107036.875  -2.434094e+000  2.172135e+001 
2323277531.25  -2.443532e+000  2.167515e+001 
2323448025.625  -2.448234e+000  2.162756e+001 
2323618520  -2.453130e+000  2.155571e+001 
2323789014.375  -2.462501e+000  2.151658e+001 
2323959508.75  -2.467100e+000  2.146861e+001 
2324130003.125  -2.476297e+000  2.138187e+001 
2324300497.5  -2.481458e+000  2.134245e+001 
2324470991.875  -2.492229e+000  2.127597e+001 
2324641486.25  -2.495477e+000  2.122167e+001 
2324811980.625  -2.504712e+000  2.118698e+001 
2324982475  -2.517527e+000  2.112209e+001 
2325152969.375  -2.519564e+000  2.107148e+001 
2325323463.75  -2.528409e+000  2.103632e+001 
2325493958.125  -2.531456e+000  2.095751e+001 
2325664452.5  -2.539144e+000  2.089475e+001 
2325834946.875  -2.551443e+000  2.088128e+001 
2326005441.25  -2.556532e+000  2.080482e+001 
2326175935.625  -2.567775e+000  2.078053e+001 
2326346430  -2.571233e+000  2.064894e+001 
2326516924.375  -2.578544e+000  2.063800e+001 
2326687418.75  -2.588756e+000  2.057127e+001 
2326857913.125  -2.598434e+000  2.052551e+001 
2327028407.5  -2.599198e+000  2.048332e+001 
2327198901.875  -2.605432e+000  2.044062e+001 
2327369396.25  -2.615828e+000  2.035143e+001 
2327539890.625  -2.619007e+000  2.030078e+001 
2327710385  -2.622786e+000  2.027660e+001 
2327880879.375  -2.630651e+000  2.022995e+001 
2328051373.75  -2.637869e+000  2.013105e+001 
2328221868.125  -2.640804e+000  2.008940e+001 
2328392362.5  -2.652436e+000  2.006016e+001 
2328562856.875  -2.656224e+000  1.998622e+001 
2328733351.25  -2.658027e+000  1.992773e+001 
2328903845.625  -2.666224e+000  1.985159e+001 
2329074340  -2.674304e+000  1.979185e+001 
2329244834.375  -2.682980e+000  1.976200e+001 
2329415328.75  -2.688508e+000  1.965901e+001 
2329585823.125  -2.695390e+000  1.962129e+001 
2329756317.5  -2.700078e+000  1.954117e+001 
2329926811.875  -2.705096e+000  1.949476e+001 
2330097306.25  -2.714481e+000  1.942877e+001 
2330267800.625  -2.720968e+000  1.939892e+001 
2330438295  -2.725628e+000  1.932530e+001 
2330608789.375  -2.733046e+000  1.924970e+001 
2330779283.75  -2.734704e+000  1.919719e+001 
2330949778.125  -2.737286e+000  1.913276e+001 
2331120272.5  -2.753716e+000  1.907855e+001 
2331290766.875  -2.755422e+000  1.895367e+001 
2331461261.25  -2.754012e+000  1.890175e+001 
2331631755.625  -2.769354e+000  1.884360e+001 
2331802250  -2.772133e+000  1.879184e+001 
2331972744.375  -2.776394e+000  1.869946e+001 
2332143238.75  -2.782678e+000  1.865148e+001 
2332313733.125  -2.792926e+000  1.852327e+001 
2332484227.5  -2.790967e+000  1.848102e+001 
2332654721.875  -2.795062e+000  1.840170e+001 
2332825216.25  -2.805388e+000  1.833507e+001 
2332995710.625  -2.809801e+000  1.825427e+001 
2333166205  -2.818823e+000  1.816581e+001 
2333336699.375  -2.818236e+000  1.816171e+001 
2333507193.75  -2.825588e+000  1.801056e+001 
2333677688.125  -2.834676e+000  1.792862e+001 
2333848182.5  -2.839513e+000  1.782969e+001 
2334018676.875  -2.847082e+000  1.779650e+001 
2334189171.25  -2.854456e+000  1.765101e+001 
2334359665.625  -2.857934e+000  1.759300e+001 
2334530160  -2.868447e+000  1.749120e+001 
2334700654.375  -2.877042e+000  1.742594e+001 
2334871148.75  -2.880339e+000  1.729215e+001 
2335041643.125  -2.893149e+000  1.722704e+001 
2335212137.5  -2.898819e+000  1.713607e+001 
2335382631.875  -2.905262e+000  1.705530e+001 
2335553126.25  -2.917667e+000  1.698588e+001 
2335723620.625  -2.927477e+000  1.684793e+001 
2335894115  -2.931546e+000  1.676788e+001 
2336064609.375  -2.946527e+000  1.666863e+001 
2336235103.75  -2.958183e+000  1.661188e+001 
2336405598.125  -2.966897e+000  1.653031e+001 
2336576092.5  -2.978630e+000  1.641997e+001 
2336746586.875  -2.989914e+000  1.634323e+001 
2336917081.25  -3.001536e+000  1.624570e+001 
2337087575.625  -3.009037e+000  1.619718e+001 
2337258070  -3.019666e+000  1.607101e+001 
2337428564.375  -3.036133e+000  1.599438e+001 
2337599058.75  -3.045911e+000  1.592115e+001 
2337769553.125  -3.061877e+000  1.582437e+001 
2337940047.5  -3.068210e+000  1.574719e+001 
2338110541.875  -3.080955e+000  1.565677e+001 
2338281036.25  -3.100594e+000  1.556927e+001 
2338451530.625  -3.113279e+000  1.553442e+001 
2338622025  -3.124490e+000  1.541899e+001 
2338792519.375  -3.137051e+000  1.536495e+001 
2338963013.75  -3.154364e+000  1.530522e+001 
2339133508.125  -3.170844e+000  1.519064e+001 
2339304002.5  -3.176851e+000  1.511784e+001 
2339474496.875  -3.185975e+000  1.503694e+001 
2339644991.25  -3.202285e+000  1.501332e+001 
2339815485.625  -3.222994e+000  1.496663e+001 
2339985980  -3.229139e+000  1.487655e+001 
2340156474.375  -3.246175e+000  1.482325e+001 
2340326968.75  -3.261415e+000  1.472238e+001 
2340497463.125  -3.273239e+000  1.466832e+001 
2340667957.5  -3.293581e+000  1.460214e+001 
2340838451.875  -3.308001e+000  1.454198e+001 
2341008946.25  -3.321637e+000  1.448277e+001 
2341179440.625  -3.336510e+000  1.439659e+001 
2341349935  -3.349828e+000  1.437208e+001 
2341520429.375  -3.361462e+000  1.430954e+001 
2341690923.75  -3.376551e+000  1.426385e+001 
2341861418.125  -3.396131e+000  1.419907e+001 
2342031912.5  -3.414082e+000  1.415166e+001 
2342202406.875  -3.425816e+000  1.410669e+001 
2342372901.25  -3.444044e+000  1.405171e+001 
2342543395.625  -3.458153e+000  1.403986e+001 
2342713890  -3.470459e+000  1.400964e+001 
2342884384.375  -3.491032e+000  1.396109e+001 
2343054878.75  -3.497312e+000  1.389719e+001 
2343225373.125  -3.513828e+000  1.383341e+001 
2343395867.5  -3.530326e+000  1.383790e+001 
2343566361.875  -3.545405e+000  1.382763e+001 
2343736856.25  -3.558379e+000  1.375287e+001 
2343907350.625  -3.569267e+000  1.372652e+001 
2344077845  -3.584077e+000  1.369278e+001 
2344248339.375  -3.602878e+000  1.370286e+001 
2344418833.75  -3.615388e+000  1.361843e+001 
2344589328.125  -3.629683e+000  1.362044e+001 
2344759822.5  -3.637986e+000  1.362311e+001 
2344930316.875  -3.651780e+000  1.359030e+001 
2345100811.25  -3.665104e+000  1.352752e+001 
2345271305.625  -3.671959e+000  1.351663e+001 
2345441800  -3.686475e+000  1.351238e+001 
2345612294.375  -3.703651e+000  1.347666e+001 
2345782788.75  -3.713135e+000  1.345394e+001 
2345953283.125  -3.724670e+000  1.346949e+001 
2346123777.5  -3.735175e+000  1.346677e+001 
2346294271.875  -3.753722e+000  1.341765e+001 
2346464766.25  -3.766728e+000  1.336140e+001 
2346635260.625  -3.773717e+000  1.343028e+001 
2346805755  -3.790765e+000  1.337765e+001 
2346976249.375  -3.793785e+000  1.338408e+001 
2347146743.75  -3.811060e+000  1.341011e+001 
2347317238.125  -3.814944e+000  1.336001e+001 
2347487732.5  -3.828521e+000  1.336095e+001 
2347658226.875  -3.838347e+000  1.332255e+001 
2347828721.25  -3.847921e+000  1.332471e+001 
2347999215.625  -3.856299e+000  1.332836e+001 
2348169710  -3.866985e+000  1.330714e+001 
2348340204.375  -3.877677e+000  1.329967e+001 
2348510698.75  -3.888819e+000  1.331483e+001 
2348681193.125  -3.896526e+000  1.325861e+001 
2348851687.5  -3.905476e+000  1.328947e+001 
2349022181.875  -3.914257e+000  1.329209e+001 
2349192676.25  -3.921799e+000  1.325536e+001 
2349363170.625  -3.931319e+000  1.325507e+001 
2349533665  -3.936963e+000  1.322150e+001 
2349704159.375  -3.946641e+000  1.327721e+001 
2349874653.75  -3.951171e+000  1.322140e+001 
2350045148.125  -3.959153e+000  1.328976e+001 
2350215642.5  -3.967064e+000  1.319044e+001 
2350386136.875  -3.971071e+000  1.326713e+001 
2350556631.25  -3.978451e+000  1.318786e+001 
2350727125.625  -3.983704e+000  1.320654e+001 
2350897620  -3.989539e+000  1.314047e+001 
2351068114.375  -3.990296e+000  1.318203e+001 
2351238608.75  -3.993830e+000  1.314100e+001 
2351409103.125  -4.002543e+000  1.310092e+001 
2351579597.5  -4.003026e+000  1.309876e+001 
2351750091.875  -4.009941e+000  1.308401e+001 
2351920586.25  -4.009530e+000  1.307875e+001 
2352091080.625  -4.015488e+000  1.304736e+001 
2352261575  -4.017066e+000  1.303577e+001 
2352432069.375  -4.022967e+000  1.294260e+001 
2352602563.75  -4.026424e+000  1.295266e+001 
2352773058.125  -4.030396e+000  1.292236e+001 
2352943552.5  -4.034875e+000  1.288136e+001 
2353114046.875  -4.038547e+000  1.283625e+001 
2353284541.25  -4.038264e+000  1.284191e+001 
2353455035.625  -4.040231e+000  1.279322e+001 
2353625530  -4.043862e+000  1.277026e+001 
2353796024.375  -4.041301e+000  1.273715e+001 
2353966518.75  -4.055315e+000  1.268487e+001 
2354137013.125  -4.048046e+000  1.264297e+001 
2354307507.5  -4.053129e+000  1.256662e+001 
2354478001.875  -4.051944e+000  1.256017e+001 
2354648496.25  -4.048997e+000  1.253309e+001 
2354818990.625  -4.053080e+000  1.247448e+001 
2354989485  -4.058354e+000  1.242489e+001 
2355159979.375  -4.058747e+000  1.239225e+001 
2355330473.75  -4.064332e+000  1.231061e+001 
2355500968.125  -4.069972e+000  1.229716e+001 
2355671462.5  -4.062458e+000  1.227504e+001 
2355841956.875  -4.068679e+000  1.222342e+001 
2356012451.25  -4.070674e+000  1.214066e+001 
2356182945.625  -4.068450e+000  1.207864e+001 
2356353440  -4.070783e+000  1.206800e+001 
2356523934.375  -4.070293e+000  1.195044e+001 
2356694428.75  -4.069939e+000  1.187417e+001 
2356864923.125  -4.067924e+000  1.182106e+001 
2357035417.5  -4.072455e+000  1.182327e+001 
2357205911.875  -4.072520e+000  1.171073e+001 
2357376406.25  -4.075172e+000  1.163738e+001 
2357546900.625  -4.073365e+000  1.156690e+001 
2357717395  -4.073718e+000  1.147276e+001 
2357887889.375  -4.071386e+000  1.140622e+001 
2358058383.75  -4.078061e+000  1.131936e+001 
2358228878.125  -4.078012e+000  1.125601e+001 
2358399372.5  -4.083959e+000  1.111710e+001 
2358569866.875  -4.083976e+000  1.110444e+001 
2358740361.25  -4.085424e+000  1.097867e+001 
2358910855.625  -4.084334e+000  1.087024e+001 
2359081350  -4.087676e+000  1.078631e+001 
2359251844.375  -4.088535e+000  1.071427e+001 
2359422338.75  -4.088280e+000  1.055554e+001 
2359592833.125  -4.091956e+000  1.046322e+001 
2359763327.5  -4.095850e+000  1.040725e+001 
2359933821.875  -4.098809e+000  1.023537e+001 
2360104316.25  -4.100114e+000  1.024300e+001 
2360274810.625  -4.107889e+000  1.007412e+001 
2360445305  -4.112128e+000  9.930998e+000 
2360615799.375  -4.112666e+000  9.818846e+000 
2360786293.75  -4.116121e+000  9.660919e+000 
2360956788.125  -4.120994e+000  9.574927e+000 
2361127282.5  -4.126168e+000  9.417431e+000 
2361297776.875  -4.132963e+000  9.309454e+000 
2361468271.25  -4.144100e+000  9.153259e+000 
2361638765.625  -4.147397e+000  9.012510e+000 
2361809260  -4.150852e+000  8.878913e+000 
2361979754.375  -4.162071e+000  8.808532e+000 
2362150248.75  -4.167467e+000  8.613404e+000 
2362320743.125  -4.177120e+000  8.532050e+000 
2362491237.5  -4.182423e+000  8.397192e+000 
2362661731.875  -4.191658e+000  8.261467e+000 
2362832226.25  -4.206159e+000  8.142511e+000 
2363002720.625  -4.208906e+000  7.966863e+000 
2363173215  -4.217481e+000  7.838614e+000 
2363343709.375  -4.229688e+000  7.751576e+000 
2363514203.75  -4.239227e+000  7.588045e+000 
2363684698.125  -4.248492e+000  7.456527e+000 
2363855192.5  -4.261690e+000  7.270429e+000 
2364025686.875  -4.270674e+000  7.138627e+000 
