! Sonnet Data File
! From: emgraph Version : 15.53-Lite
! From Emgraph Data: wifi_patch
! Data File Written: 11/01/2018 10:23:37
!< HDATE 09/20/2018 14:13:43
!< MDATE 11/01/2018 10:18:09
# GHZ S MA R 50.00000
2.29000000 0.886548 169.98
!< P1 F=2.29 Eeff=(3.34558181 -0.0753906) Z0=(57.9705769 0.35130416) R=18.1084078 C=0.05817125 
2.29100000 0.885635 169.73
2.29200000 0.884705 169.47
2.29300000 0.883758 169.21
2.29400000 0.882792 168.95
2.29500000 0.881807 168.69
2.29600000 0.880803 168.42
2.29700000 0.879779 168.16
2.29800000 0.878734 167.89
2.29900000 0.877669 167.62
2.30000000 0.876583 167.35
2.30100000 0.875474 167.07
2.30200000 0.874344 166.80
2.30300000 0.873190 166.52
2.30400000 0.872012 166.24
2.30500000 0.870810 165.96
2.30600000 0.869583 165.67
2.30700000 0.868331 165.39
2.30800000 0.867052 165.10
2.30900000 0.865747 164.81
2.31000000 0.864413 164.51
2.31100000 0.863051 164.22
2.31200000 0.861660 163.92
2.31300000 0.860239 163.62
2.31400000 0.858787 163.32
2.31500000 0.857303 163.01
2.31600000 0.855787 162.71
2.31700000 0.854237 162.40
2.31800000 0.852653 162.08
2.31900000 0.851033 161.77
2.32000000 0.849378 161.45
2.32100000 0.847684 161.13
2.32200000 0.845953 160.80
2.32300000 0.844181 160.48
2.32400000 0.842369 160.14
2.32500000 0.840516 159.81
2.32600000 0.838619 159.48
2.32700000 0.836678 159.14
2.32800000 0.834692 158.79
2.32900000 0.832659 158.45
2.33000000 0.830577 158.10
2.33100000 0.828446 157.75
2.33200000 0.826265 157.39
2.33300000 0.824030 157.03
2.33400000 0.821742 156.67
2.33500000 0.819398 156.30
2.33600000 0.816997 155.93
2.33700000 0.814537 155.56
2.33800000 0.812016 155.18
2.33900000 0.809433 154.80
2.34000000 0.806785 154.41
2.34100000 0.804072 154.02
2.34200000 0.801290 153.63
2.34300000 0.798438 153.23
2.34400000 0.795514 152.83
2.34500000 0.792516 152.42
2.34600000 0.789440 152.01
2.34700000 0.786286 151.60
2.34800000 0.783051 151.18
2.34900000 0.779732 150.75
2.35000000 0.776327 150.32
2.35100000 0.772833 149.89
2.35200000 0.769248 149.45
2.35300000 0.765569 149.01
2.35400000 0.761793 148.56
2.35500000 0.757917 148.10
2.35600000 0.753939 147.65
2.35700000 0.749855 147.18
2.35800000 0.745663 146.71
2.35900000 0.741358 146.24
2.36000000 0.736939 145.76
2.36100000 0.732401 145.28
2.36200000 0.727741 144.79
2.36300000 0.722955 144.29
2.36400000 0.718041 143.79
2.36500000 0.712995 143.28
2.36600000 0.707812 142.77
2.36700000 0.702490 142.25
2.36800000 0.697024 141.73
2.36900000 0.691410 141.20
2.37000000 0.685644 140.67
2.37100000 0.679724 140.13
2.37200000 0.673643 139.58
2.37300000 0.667399 139.03
2.37400000 0.660988 138.47
2.37500000 0.654405 137.91
2.37600000 0.647646 137.35
2.37700000 0.640707 136.78
2.37800000 0.633584 136.20
2.37900000 0.626273 135.62
2.38000000 0.618769 135.03
2.38100000 0.611070 134.44
2.38200000 0.603171 133.85
2.38300000 0.595068 133.25
2.38400000 0.586758 132.65
2.38500000 0.578237 132.05
2.38600000 0.569502 131.44
2.38700000 0.560549 130.83
2.38800000 0.551376 130.23
2.38900000 0.541980 129.62
2.39000000 0.532359 129.01
2.39100000 0.522510 128.40
2.39200000 0.512432 127.79
2.39300000 0.502124 127.19
2.39400000 0.491585 126.59
2.39500000 0.480813 126.00
2.39600000 0.469811 125.42
2.39700000 0.458578 124.84
2.39800000 0.447115 124.28
2.39900000 0.435426 123.73
2.40000000 0.423513 123.20
2.40100000 0.411379 122.69
2.40200000 0.399030 122.20
2.40300000 0.386472 121.73
2.40400000 0.373711 121.30
2.40500000 0.360757 120.91
2.40600000 0.347618 120.56
2.40700000 0.334307 120.26
2.40800000 0.320836 120.02
2.40900000 0.307222 119.85
2.41000000 0.293483 119.77
2.41100000 0.279640 119.78
2.41200000 0.265717 119.90
2.41300000 0.251744 120.16
2.41400000 0.237757 120.58
2.41500000 0.223796 121.19
2.41600000 0.209913 122.03
2.41700000 0.196170 123.15
2.41800000 0.182645 124.61
2.41900000 0.169436 126.49
2.42000000 0.156669 128.87
2.42100000 0.144502 131.86
2.42200000 0.133142 135.59
2.42300000 0.122850 140.19
2.42400000 0.113947 145.76
2.42500000 0.106806 152.34
2.42600000 0.101815 159.85
2.42700000 0.099307 168.01
2.42800000 0.099467 176.39
2.42900000 0.102269 -175.5
!< P1 F=2.429 Eeff=(3.34566434 -0.0778366) Z0=(57.9678591 0.32388146) R=16.849377 C=0.05820942 
2.43000000 0.107438 -168.1
2.43100000 0.114686 -161.7
2.43200000 0.123614 -156.2
2.43300000 0.133851 -151.7
2.43400000 0.145079 -148.1
2.43500000 0.157044 -145.2
2.43600000 0.169546 -142.9
2.43700000 0.182433 -141.0
2.43800000 0.195584 -139.6
2.43900000 0.208905 -138.5
2.44000000 0.222325 -137.6
2.44100000 0.235783 -137.0
2.44200000 0.249233 -136.6
2.44300000 0.262636 -136.3
2.44400000 0.275961 -136.2
2.44500000 0.289182 -136.1
2.44600000 0.302276 -136.2
2.44700000 0.315226 -136.3
2.44800000 0.328016 -136.5
2.44900000 0.340633 -136.8
2.45000000 0.353066 -137.1
2.45100000 0.365307 -137.5
2.45200000 0.377349 -137.8
2.45300000 0.389184 -138.3
2.45400000 0.400809 -138.7
2.45500000 0.412218 -139.2
2.45600000 0.423411 -139.7
2.45700000 0.434383 -140.1
2.45800000 0.445135 -140.7
2.45900000 0.455665 -141.2
2.46000000 0.465973 -141.7
2.46100000 0.476060 -142.3
2.46200000 0.485927 -142.8
2.46300000 0.495575 -143.3
2.46400000 0.505006 -143.9
2.46500000 0.514222 -144.5
2.46600000 0.523225 -145.0
2.46700000 0.532019 -145.6
2.46800000 0.540605 -146.1
2.46900000 0.548987 -146.7
2.47000000 0.557169 -147.2
2.47100000 0.565153 -147.8
2.47200000 0.572944 -148.3
2.47300000 0.580544 -148.9
2.47400000 0.587957 -149.4
2.47500000 0.595188 -150.0
2.47600000 0.602240 -150.5
2.47700000 0.609116 -151.0
2.47800000 0.615822 -151.6
2.47900000 0.622360 -152.1
2.48000000 0.628734 -152.6
2.48100000 0.634949 -153.1
2.48200000 0.641007 -153.6
2.48300000 0.646914 -154.1
2.48400000 0.652672 -154.6
2.48500000 0.658286 -155.1
2.48600000 0.663758 -155.6
2.48700000 0.669093 -156.1
2.48800000 0.674295 -156.6
2.48900000 0.679365 -157.1
2.49000000 0.684309 -157.5
2.49100000 0.689130 -158.0
2.49200000 0.693830 -158.5
2.49300000 0.698413 -158.9
2.49400000 0.702882 -159.4
2.49500000 0.707241 -159.8
2.49600000 0.711491 -160.3
2.49700000 0.715637 -160.7
2.49800000 0.719681 -161.1
2.49900000 0.723626 -161.6
2.50000000 0.727474 -162.0
2.50100000 0.731229 -162.4
2.50200000 0.734892 -162.8
2.50300000 0.738467 -163.2
2.50400000 0.741956 -163.7
2.50500000 0.745361 -164.1
2.50600000 0.748684 -164.5
2.50700000 0.751929 -164.9
2.50800000 0.755096 -165.2
2.50900000 0.758189 -165.6
2.51000000 0.761208 -166.0
2.51100000 0.764158 -166.4
2.51200000 0.767038 -166.8
2.51300000 0.769852 -167.1
2.51400000 0.772600 -167.5
2.51500000 0.775286 -167.9
2.51600000 0.777909 -168.2
2.51700000 0.780474 -168.6
2.51800000 0.782980 -168.9
2.51900000 0.785429 -169.3
2.52000000 0.787824 -169.6
2.52100000 0.790165 -170.0
2.52200000 0.792455 -170.3
2.52300000 0.794693 -170.7
2.52400000 0.796883 -171.0
2.52500000 0.799025 -171.3
2.52600000 0.801120 -171.7
2.52700000 0.803170 -172.0
2.52800000 0.805176 -172.3
2.52900000 0.807139 -172.6
2.53000000 0.809060 -172.9
2.53100000 0.810941 -173.3
2.53200000 0.812782 -173.6
2.53300000 0.814585 -173.9
2.53400000 0.816350 -174.2
2.53500000 0.818079 -174.5
2.53600000 0.819773 -174.8
2.53700000 0.821432 -175.1
2.53800000 0.823058 -175.4
2.53900000 0.824650 -175.7
2.54000000 0.826211 -176.0
2.54100000 0.827741 -176.2
2.54200000 0.829241 -176.5
2.54300000 0.830712 -176.8
2.54400000 0.832154 -177.1
2.54500000 0.833568 -177.4
2.54600000 0.834955 -177.7
2.54700000 0.836315 -177.9
2.54800000 0.837650 -178.2
2.54900000 0.838960 -178.5
2.55000000 0.840246 -178.7
2.55100000 0.841508 -179.0
2.55200000 0.842746 -179.3
2.55300000 0.843963 -179.5
2.55400000 0.845157 -179.8
2.55500000 0.846330 179.94
2.55600000 0.847483 179.68
2.55700000 0.848615 179.43
2.55800000 0.849728 179.17
2.55900000 0.850822 178.92
2.56000000 0.851897 178.67
!< P1 F=2.56 Eeff=(3.34094485 -0.0793185) Z0=(57.9128564 0.30447894) R=15.8069687 C=0.05828984 
